time,"I(IIN_A)","I(IIN_B)","I(ICLK1)","I(ICLK2)","I(ICLK3)","I(ICLK4)","I(LOUT)"
0.000000e+00,0.000000e+00,0.000000e+00,0.000000e+00,0.000000e+00,0.000000e+00,0.000000e+00,0.000000e+00
2.500000e-13,-1.000000e-06,-1.000000e-06,0.000000e+00,0.000000e+00,0.000000e+00,0.000000e+00,2.235533e-08
5.000000e-13,-2.000000e-06,-2.000000e-06,0.000000e+00,0.000000e+00,0.000000e+00,0.000000e+00,5.896783e-08
7.500000e-13,-3.000000e-06,-3.000000e-06,0.000000e+00,0.000000e+00,0.000000e+00,0.000000e+00,1.134986e-07
1.000000e-12,-4.000000e-06,-4.000000e-06,0.000000e+00,0.000000e+00,0.000000e+00,0.000000e+00,1.841639e-07
1.250000e-12,-5.000000e-06,-5.000000e-06,0.000000e+00,0.000000e+00,0.000000e+00,0.000000e+00,2.643994e-07
1.500000e-12,-6.000000e-06,-6.000000e-06,0.000000e+00,0.000000e+00,0.000000e+00,0.000000e+00,3.452251e-07
1.750000e-12,-7.000000e-06,-7.000000e-06,0.000000e+00,0.000000e+00,0.000000e+00,0.000000e+00,4.182783e-07
2.000000e-12,-8.000000e-06,-8.000000e-06,0.000000e+00,0.000000e+00,0.000000e+00,0.000000e+00,4.784235e-07
2.250000e-12,-9.000000e-06,-9.000000e-06,0.000000e+00,0.000000e+00,0.000000e+00,0.000000e+00,5.251160e-07
2.500000e-12,-1.000000e-05,-1.000000e-05,0.000000e+00,0.000000e+00,0.000000e+00,0.000000e+00,5.621804e-07
2.750000e-12,-1.100000e-05,-1.100000e-05,0.000000e+00,0.000000e+00,0.000000e+00,0.000000e+00,5.962080e-07
3.000000e-12,-1.200000e-05,-1.200000e-05,0.000000e+00,0.000000e+00,0.000000e+00,0.000000e+00,6.342045e-07
3.250000e-12,-1.300000e-05,-1.300000e-05,0.000000e+00,0.000000e+00,0.000000e+00,0.000000e+00,6.813051e-07
3.500000e-12,-1.400000e-05,-1.400000e-05,0.000000e+00,0.000000e+00,0.000000e+00,0.000000e+00,7.392860e-07
3.750000e-12,-1.500000e-05,-1.500000e-05,0.000000e+00,0.000000e+00,0.000000e+00,0.000000e+00,8.062803e-07
4.000000e-12,-1.600000e-05,-1.600000e-05,0.000000e+00,0.000000e+00,0.000000e+00,0.000000e+00,8.776873e-07
4.250000e-12,-1.700000e-05,-1.700000e-05,0.000000e+00,0.000000e+00,0.000000e+00,0.000000e+00,9.478819e-07
4.500000e-12,-1.800000e-05,-1.800000e-05,0.000000e+00,0.000000e+00,0.000000e+00,0.000000e+00,1.012107e-06
4.750000e-12,-1.900000e-05,-1.900000e-05,0.000000e+00,0.000000e+00,0.000000e+00,0.000000e+00,1.067925e-06
5.000000e-12,-2.000000e-05,-2.000000e-05,0.000000e+00,0.000000e+00,0.000000e+00,0.000000e+00,1.115808e-06
5.250000e-12,-2.000000e-05,-2.000000e-05,0.000000e+00,0.000000e+00,0.000000e+00,0.000000e+00,1.136379e-06
5.500000e-12,-2.000000e-05,-2.000000e-05,0.000000e+00,0.000000e+00,0.000000e+00,0.000000e+00,1.142049e-06
5.750000e-12,-2.000000e-05,-2.000000e-05,0.000000e+00,0.000000e+00,0.000000e+00,0.000000e+00,1.133301e-06
6.000000e-12,-2.000000e-05,-2.000000e-05,0.000000e+00,0.000000e+00,0.000000e+00,0.000000e+00,1.114580e-06
6.250000e-12,-2.000000e-05,-2.000000e-05,0.000000e+00,0.000000e+00,0.000000e+00,0.000000e+00,1.092904e-06
6.500000e-12,-2.000000e-05,-2.000000e-05,0.000000e+00,0.000000e+00,0.000000e+00,0.000000e+00,1.075544e-06
6.750000e-12,-2.000000e-05,-2.000000e-05,0.000000e+00,0.000000e+00,0.000000e+00,0.000000e+00,1.067723e-06
7.000000e-12,-2.000000e-05,-2.000000e-05,0.000000e+00,0.000000e+00,0.000000e+00,0.000000e+00,1.071140e-06
7.250000e-12,-2.000000e-05,-2.000000e-05,0.000000e+00,0.000000e+00,0.000000e+00,0.000000e+00,1.083731e-06
7.500000e-12,-2.000000e-05,-2.000000e-05,0.000000e+00,0.000000e+00,0.000000e+00,0.000000e+00,1.100662e-06
7.750000e-12,-2.000000e-05,-2.000000e-05,0.000000e+00,0.000000e+00,0.000000e+00,0.000000e+00,1.116118e-06
8.000000e-12,-2.000000e-05,-2.000000e-05,0.000000e+00,0.000000e+00,0.000000e+00,0.000000e+00,1.125254e-06
8.250000e-12,-2.000000e-05,-2.000000e-05,0.000000e+00,0.000000e+00,0.000000e+00,0.000000e+00,1.125670e-06
8.500000e-12,-2.000000e-05,-2.000000e-05,0.000000e+00,0.000000e+00,0.000000e+00,0.000000e+00,1.117973e-06
8.750000e-12,-2.000000e-05,-2.000000e-05,0.000000e+00,0.000000e+00,0.000000e+00,0.000000e+00,1.105326e-06
9.000000e-12,-2.000000e-05,-2.000000e-05,0.000000e+00,0.000000e+00,0.000000e+00,0.000000e+00,1.092216e-06
9.250000e-12,-2.000000e-05,-2.000000e-05,0.000000e+00,0.000000e+00,0.000000e+00,0.000000e+00,1.082899e-06
9.500000e-12,-2.000000e-05,-2.000000e-05,0.000000e+00,0.000000e+00,0.000000e+00,0.000000e+00,1.080055e-06
9.750000e-12,-2.000000e-05,-2.000000e-05,0.000000e+00,0.000000e+00,0.000000e+00,0.000000e+00,1.084054e-06
1.000000e-11,-2.000000e-05,-2.000000e-05,0.000000e+00,0.000000e+00,0.000000e+00,0.000000e+00,1.093036e-06
1.025000e-11,-2.000000e-05,-2.000000e-05,0.000000e+00,0.000000e+00,0.000000e+00,0.000000e+00,1.103695e-06
1.050000e-11,-2.000000e-05,-2.000000e-05,0.000000e+00,0.000000e+00,0.000000e+00,0.000000e+00,1.112462e-06
1.075000e-11,-2.000000e-05,-2.000000e-05,0.000000e+00,0.000000e+00,0.000000e+00,0.000000e+00,1.116673e-06
1.100000e-11,-2.000000e-05,-2.000000e-05,0.000000e+00,0.000000e+00,0.000000e+00,0.000000e+00,1.115352e-06
1.125000e-11,-2.000000e-05,-2.000000e-05,0.000000e+00,0.000000e+00,0.000000e+00,0.000000e+00,1.109382e-06
1.150000e-11,-2.000000e-05,-2.000000e-05,0.000000e+00,0.000000e+00,0.000000e+00,0.000000e+00,1.101069e-06
1.175000e-11,-2.000000e-05,-2.000000e-05,0.000000e+00,0.000000e+00,0.000000e+00,0.000000e+00,1.093280e-06
1.200000e-11,-2.000000e-05,-2.000000e-05,0.000000e+00,0.000000e+00,0.000000e+00,0.000000e+00,1.088478e-06
1.225000e-11,-2.000000e-05,-2.000000e-05,0.000000e+00,0.000000e+00,0.000000e+00,0.000000e+00,1.087961e-06
1.250000e-11,-2.000000e-05,-2.000000e-05,0.000000e+00,0.000000e+00,0.000000e+00,0.000000e+00,1.091544e-06
1.275000e-11,-2.000000e-05,-2.000000e-05,0.000000e+00,0.000000e+00,0.000000e+00,0.000000e+00,1.097738e-06
1.300000e-11,-2.000000e-05,-2.000000e-05,0.000000e+00,0.000000e+00,0.000000e+00,0.000000e+00,1.104339e-06
1.325000e-11,-2.000000e-05,-2.000000e-05,0.000000e+00,0.000000e+00,0.000000e+00,0.000000e+00,1.109190e-06
1.350000e-11,-2.000000e-05,-2.000000e-05,0.000000e+00,0.000000e+00,0.000000e+00,0.000000e+00,1.110875e-06
1.375000e-11,-2.000000e-05,-2.000000e-05,0.000000e+00,0.000000e+00,0.000000e+00,0.000000e+00,1.109110e-06
1.400000e-11,-2.000000e-05,-2.000000e-05,0.000000e+00,0.000000e+00,0.000000e+00,0.000000e+00,1.104744e-06
1.425000e-11,-2.000000e-05,-2.000000e-05,0.000000e+00,0.000000e+00,0.000000e+00,0.000000e+00,1.099389e-06
1.450000e-11,-2.000000e-05,-2.000000e-05,0.000000e+00,0.000000e+00,0.000000e+00,0.000000e+00,1.094848e-06
1.475000e-11,-2.000000e-05,-2.000000e-05,0.000000e+00,0.000000e+00,0.000000e+00,0.000000e+00,1.092512e-06
1.500000e-11,-2.000000e-05,-2.000000e-05,0.000000e+00,0.000000e+00,0.000000e+00,0.000000e+00,1.092953e-06
1.525000e-11,-2.000000e-05,-2.000000e-05,0.000000e+00,0.000000e+00,0.000000e+00,0.000000e+00,1.095806e-06
1.550000e-11,-2.000000e-05,-2.000000e-05,0.000000e+00,0.000000e+00,0.000000e+00,0.000000e+00,1.099958e-06
1.575000e-11,-2.000000e-05,-2.000000e-05,0.000000e+00,0.000000e+00,0.000000e+00,0.000000e+00,1.103973e-06
1.600000e-11,-2.000000e-05,-2.000000e-05,0.000000e+00,0.000000e+00,0.000000e+00,0.000000e+00,1.106574e-06
1.625000e-11,-2.000000e-05,-2.000000e-05,0.000000e+00,0.000000e+00,0.000000e+00,0.000000e+00,1.107040e-06
1.650000e-11,-2.000000e-05,-2.000000e-05,0.000000e+00,0.000000e+00,0.000000e+00,0.000000e+00,1.105394e-06
1.675000e-11,-2.000000e-05,-2.000000e-05,0.000000e+00,0.000000e+00,0.000000e+00,0.000000e+00,1.102333e-06
1.700000e-11,-2.000000e-05,-2.000000e-05,0.000000e+00,0.000000e+00,0.000000e+00,0.000000e+00,1.098954e-06
1.725000e-11,-2.000000e-05,-2.000000e-05,0.000000e+00,0.000000e+00,0.000000e+00,0.000000e+00,1.096364e-06
1.750000e-11,-2.000000e-05,-2.000000e-05,0.000000e+00,0.000000e+00,0.000000e+00,0.000000e+00,1.095329e-06
1.775000e-11,-2.000000e-05,-2.000000e-05,0.000000e+00,0.000000e+00,0.000000e+00,0.000000e+00,1.096056e-06
1.800000e-11,-2.000000e-05,-2.000000e-05,0.000000e+00,0.000000e+00,0.000000e+00,0.000000e+00,1.098171e-06
1.825000e-11,-2.000000e-05,-2.000000e-05,0.000000e+00,0.000000e+00,0.000000e+00,0.000000e+00,1.100884e-06
1.850000e-11,-2.000000e-05,-2.000000e-05,0.000000e+00,0.000000e+00,0.000000e+00,0.000000e+00,1.103279e-06
1.875000e-11,-2.000000e-05,-2.000000e-05,0.000000e+00,0.000000e+00,0.000000e+00,0.000000e+00,1.104616e-06
1.900000e-11,-2.000000e-05,-2.000000e-05,0.000000e+00,0.000000e+00,0.000000e+00,0.000000e+00,1.104552e-06
1.925000e-11,-2.000000e-05,-2.000000e-05,0.000000e+00,0.000000e+00,0.000000e+00,0.000000e+00,1.103221e-06
1.950000e-11,-2.000000e-05,-2.000000e-05,0.000000e+00,0.000000e+00,0.000000e+00,0.000000e+00,1.101151e-06
1.975000e-11,-2.000000e-05,-2.000000e-05,0.000000e+00,0.000000e+00,0.000000e+00,0.000000e+00,1.099061e-06
2.000000e-11,-2.000000e-05,-2.000000e-05,0.000000e+00,0.000000e+00,0.000000e+00,0.000000e+00,1.097623e-06
2.025000e-11,-2.000000e-05,-2.000000e-05,0.000000e+00,0.000000e+00,0.000000e+00,0.000000e+00,1.097241e-06
2.050000e-11,-2.000000e-05,-2.000000e-05,0.000000e+00,0.000000e+00,0.000000e+00,0.000000e+00,1.097952e-06
2.075000e-11,-2.000000e-05,-2.000000e-05,0.000000e+00,0.000000e+00,0.000000e+00,0.000000e+00,1.099441e-06
2.100000e-11,-2.000000e-05,-2.000000e-05,0.000000e+00,0.000000e+00,0.000000e+00,0.000000e+00,1.101170e-06
2.125000e-11,-2.000000e-05,-2.000000e-05,0.000000e+00,0.000000e+00,0.000000e+00,0.000000e+00,1.102568e-06
2.150000e-11,-2.000000e-05,-2.000000e-05,0.000000e+00,0.000000e+00,0.000000e+00,0.000000e+00,1.103217e-06
2.175000e-11,-2.000000e-05,-2.000000e-05,0.000000e+00,0.000000e+00,0.000000e+00,0.000000e+00,1.102970e-06
2.200000e-11,-2.000000e-05,-2.000000e-05,0.000000e+00,0.000000e+00,0.000000e+00,0.000000e+00,1.101981e-06
2.225000e-11,-2.000000e-05,-2.000000e-05,0.000000e+00,0.000000e+00,0.000000e+00,0.000000e+00,1.100623e-06
2.250000e-11,-2.000000e-05,-2.000000e-05,0.000000e+00,0.000000e+00,0.000000e+00,0.000000e+00,1.099359e-06
2.275000e-11,-2.000000e-05,-2.000000e-05,0.000000e+00,0.000000e+00,0.000000e+00,0.000000e+00,1.098584e-06
2.300000e-11,-2.000000e-05,-2.000000e-05,0.000000e+00,0.000000e+00,0.000000e+00,0.000000e+00,1.098504e-06
2.325000e-11,-2.000000e-05,-2.000000e-05,0.000000e+00,0.000000e+00,0.000000e+00,0.000000e+00,1.099087e-06
2.350000e-11,-2.000000e-05,-2.000000e-05,0.000000e+00,0.000000e+00,0.000000e+00,0.000000e+00,1.100093e-06
2.375000e-11,-2.000000e-05,-2.000000e-05,0.000000e+00,0.000000e+00,0.000000e+00,0.000000e+00,1.101168e-06
2.400000e-11,-2.000000e-05,-2.000000e-05,0.000000e+00,0.000000e+00,0.000000e+00,0.000000e+00,1.101965e-06
2.425000e-11,-2.000000e-05,-2.000000e-05,0.000000e+00,0.000000e+00,0.000000e+00,0.000000e+00,1.102254e-06
2.450000e-11,-2.000000e-05,-2.000000e-05,0.000000e+00,0.000000e+00,0.000000e+00,0.000000e+00,1.101986e-06
2.475000e-11,-2.000000e-05,-2.000000e-05,0.000000e+00,0.000000e+00,0.000000e+00,0.000000e+00,1.101292e-06
2.500000e-11,-2.000000e-05,-2.000000e-05,0.000000e+00,0.000000e+00,0.000000e+00,0.000000e+00,1.100428e-06
2.525000e-11,-2.000000e-05,-2.000000e-05,0.000000e+00,0.000000e+00,0.000000e+00,0.000000e+00,1.099681e-06
2.550000e-11,-2.000000e-05,-2.000000e-05,0.000000e+00,0.000000e+00,0.000000e+00,0.000000e+00,1.099278e-06
2.575000e-11,-2.000000e-05,-2.000000e-05,0.000000e+00,0.000000e+00,0.000000e+00,0.000000e+00,1.099318e-06
2.600000e-11,-2.000000e-05,-2.000000e-05,0.000000e+00,0.000000e+00,0.000000e+00,0.000000e+00,1.099750e-06
2.625000e-11,-2.000000e-05,-2.000000e-05,0.000000e+00,0.000000e+00,0.000000e+00,0.000000e+00,1.100406e-06
2.650000e-11,-2.000000e-05,-2.000000e-05,0.000000e+00,0.000000e+00,0.000000e+00,0.000000e+00,1.101058e-06
2.675000e-11,-2.000000e-05,-2.000000e-05,0.000000e+00,0.000000e+00,0.000000e+00,0.000000e+00,1.101501e-06
2.700000e-11,-2.000000e-05,-2.000000e-05,0.000000e+00,0.000000e+00,0.000000e+00,0.000000e+00,1.101613e-06
2.725000e-11,-2.000000e-05,-2.000000e-05,0.000000e+00,0.000000e+00,0.000000e+00,0.000000e+00,1.101387e-06
2.750000e-11,-2.000000e-05,-2.000000e-05,0.000000e+00,0.000000e+00,0.000000e+00,0.000000e+00,1.100923e-06
2.775000e-11,-2.000000e-05,-2.000000e-05,0.000000e+00,0.000000e+00,0.000000e+00,0.000000e+00,1.100389e-06
2.800000e-11,-2.000000e-05,-2.000000e-05,0.000000e+00,0.000000e+00,0.000000e+00,0.000000e+00,1.099957e-06
2.825000e-11,-2.000000e-05,-2.000000e-05,0.000000e+00,0.000000e+00,0.000000e+00,0.000000e+00,1.099756e-06
2.850000e-11,-2.000000e-05,-2.000000e-05,0.000000e+00,0.000000e+00,0.000000e+00,0.000000e+00,1.099829e-06
2.875000e-11,-2.000000e-05,-2.000000e-05,0.000000e+00,0.000000e+00,0.000000e+00,0.000000e+00,1.100129e-06
2.900000e-11,-2.000000e-05,-2.000000e-05,0.000000e+00,0.000000e+00,0.000000e+00,0.000000e+00,1.100541e-06
2.925000e-11,-2.000000e-05,-2.000000e-05,0.000000e+00,0.000000e+00,0.000000e+00,0.000000e+00,1.100927e-06
2.950000e-11,-2.000000e-05,-2.000000e-05,0.000000e+00,0.000000e+00,0.000000e+00,0.000000e+00,1.101167e-06
2.975000e-11,-2.000000e-05,-2.000000e-05,0.000000e+00,0.000000e+00,0.000000e+00,0.000000e+00,1.101199e-06
3.000000e-11,-2.000000e-05,-2.000000e-05,0.000000e+00,0.000000e+00,0.000000e+00,0.000000e+00,1.101032e-06
3.025000e-11,-2.000000e-05,-2.000000e-05,0.000000e+00,0.000000e+00,0.000000e+00,0.000000e+00,1.100735e-06
3.050000e-11,-2.000000e-05,-2.000000e-05,0.000000e+00,0.000000e+00,0.000000e+00,0.000000e+00,1.100413e-06
3.075000e-11,-2.000000e-05,-2.000000e-05,0.000000e+00,0.000000e+00,0.000000e+00,0.000000e+00,1.100170e-06
3.100000e-11,-2.000000e-05,-2.000000e-05,0.000000e+00,0.000000e+00,0.000000e+00,0.000000e+00,1.100073e-06
3.125000e-11,-2.000000e-05,-2.000000e-05,0.000000e+00,0.000000e+00,0.000000e+00,0.000000e+00,1.100142e-06
3.150000e-11,-2.000000e-05,-2.000000e-05,0.000000e+00,0.000000e+00,0.000000e+00,0.000000e+00,1.100338e-06
3.175000e-11,-2.000000e-05,-2.000000e-05,0.000000e+00,0.000000e+00,0.000000e+00,0.000000e+00,1.100589e-06
3.200000e-11,-2.000000e-05,-2.000000e-05,0.000000e+00,0.000000e+00,0.000000e+00,0.000000e+00,1.100811e-06
3.225000e-11,-2.000000e-05,-2.000000e-05,0.000000e+00,0.000000e+00,0.000000e+00,0.000000e+00,1.100939e-06
3.250000e-11,-2.000000e-05,-2.000000e-05,0.000000e+00,0.000000e+00,0.000000e+00,0.000000e+00,1.100940e-06
3.275000e-11,-2.000000e-05,-2.000000e-05,0.000000e+00,0.000000e+00,0.000000e+00,0.000000e+00,1.100826e-06
3.300000e-11,-2.000000e-05,-2.000000e-05,0.000000e+00,0.000000e+00,0.000000e+00,0.000000e+00,1.100644e-06
3.325000e-11,-2.000000e-05,-2.000000e-05,0.000000e+00,0.000000e+00,0.000000e+00,0.000000e+00,1.100455e-06
3.350000e-11,-2.000000e-05,-2.000000e-05,0.000000e+00,0.000000e+00,0.000000e+00,0.000000e+00,1.100321e-06
3.375000e-11,-2.000000e-05,-2.000000e-05,0.000000e+00,0.000000e+00,0.000000e+00,0.000000e+00,1.100276e-06
3.400000e-11,-2.000000e-05,-2.000000e-05,0.000000e+00,0.000000e+00,0.000000e+00,0.000000e+00,1.100328e-06
3.425000e-11,-2.000000e-05,-2.000000e-05,0.000000e+00,0.000000e+00,0.000000e+00,0.000000e+00,1.100449e-06
3.450000e-11,-2.000000e-05,-2.000000e-05,0.000000e+00,0.000000e+00,0.000000e+00,0.000000e+00,1.100597e-06
3.475000e-11,-2.000000e-05,-2.000000e-05,0.000000e+00,0.000000e+00,0.000000e+00,0.000000e+00,1.100723e-06
3.500000e-11,-2.000000e-05,-2.000000e-05,0.000000e+00,0.000000e+00,0.000000e+00,0.000000e+00,1.100790e-06
3.525000e-11,-2.000000e-05,-2.000000e-05,0.000000e+00,0.000000e+00,0.000000e+00,0.000000e+00,1.100782e-06
3.550000e-11,-2.000000e-05,-2.000000e-05,0.000000e+00,0.000000e+00,0.000000e+00,0.000000e+00,1.100711e-06
3.575000e-11,-2.000000e-05,-2.000000e-05,0.000000e+00,0.000000e+00,0.000000e+00,0.000000e+00,1.100603e-06
3.600000e-11,-2.000000e-05,-2.000000e-05,0.000000e+00,0.000000e+00,0.000000e+00,0.000000e+00,1.100496e-06
3.625000e-11,-2.000000e-05,-2.000000e-05,0.000000e+00,0.000000e+00,0.000000e+00,0.000000e+00,1.100422e-06
3.650000e-11,-2.000000e-05,-2.000000e-05,0.000000e+00,0.000000e+00,0.000000e+00,0.000000e+00,1.100402e-06
3.675000e-11,-2.000000e-05,-2.000000e-05,0.000000e+00,0.000000e+00,0.000000e+00,0.000000e+00,1.100436e-06
3.700000e-11,-2.000000e-05,-2.000000e-05,0.000000e+00,0.000000e+00,0.000000e+00,0.000000e+00,1.100507e-06
3.725000e-11,-2.000000e-05,-2.000000e-05,0.000000e+00,0.000000e+00,0.000000e+00,0.000000e+00,1.100592e-06
3.750000e-11,-2.000000e-05,-2.000000e-05,0.000000e+00,0.000000e+00,0.000000e+00,0.000000e+00,1.100661e-06
3.775000e-11,-2.000000e-05,-2.000000e-05,0.000000e+00,0.000000e+00,0.000000e+00,0.000000e+00,1.100696e-06
3.800000e-11,-2.000000e-05,-2.000000e-05,0.000000e+00,0.000000e+00,0.000000e+00,0.000000e+00,1.100689e-06
3.825000e-11,-2.000000e-05,-2.000000e-05,0.000000e+00,0.000000e+00,0.000000e+00,0.000000e+00,1.100647e-06
3.850000e-11,-2.000000e-05,-2.000000e-05,0.000000e+00,0.000000e+00,0.000000e+00,0.000000e+00,1.100586e-06
3.875000e-11,-2.000000e-05,-2.000000e-05,0.000000e+00,0.000000e+00,0.000000e+00,0.000000e+00,1.100527e-06
3.900000e-11,-2.000000e-05,-2.000000e-05,0.000000e+00,0.000000e+00,0.000000e+00,0.000000e+00,1.100487e-06
3.925000e-11,-2.000000e-05,-2.000000e-05,0.000000e+00,0.000000e+00,0.000000e+00,0.000000e+00,1.100477e-06
3.950000e-11,-2.000000e-05,-2.000000e-05,0.000000e+00,0.000000e+00,0.000000e+00,0.000000e+00,1.100496e-06
3.975000e-11,-2.000000e-05,-2.000000e-05,0.000000e+00,0.000000e+00,0.000000e+00,0.000000e+00,1.100537e-06
4.000000e-11,-2.000000e-05,-2.000000e-05,0.000000e+00,0.000000e+00,0.000000e+00,0.000000e+00,1.100583e-06
4.025000e-11,-2.000000e-05,-2.000000e-05,0.000000e+00,0.000000e+00,0.000000e+00,0.000000e+00,1.100621e-06
4.050000e-11,-2.000000e-05,-2.000000e-05,0.000000e+00,0.000000e+00,0.000000e+00,0.000000e+00,1.100640e-06
4.075000e-11,-2.000000e-05,-2.000000e-05,0.000000e+00,0.000000e+00,0.000000e+00,0.000000e+00,1.100636e-06
4.100000e-11,-2.000000e-05,-2.000000e-05,0.000000e+00,0.000000e+00,0.000000e+00,0.000000e+00,1.100613e-06
4.125000e-11,-2.000000e-05,-2.000000e-05,0.000000e+00,0.000000e+00,0.000000e+00,0.000000e+00,1.100580e-06
4.150000e-11,-2.000000e-05,-2.000000e-05,0.000000e+00,0.000000e+00,0.000000e+00,0.000000e+00,1.100548e-06
4.175000e-11,-2.000000e-05,-2.000000e-05,0.000000e+00,0.000000e+00,0.000000e+00,0.000000e+00,1.100526e-06
4.200000e-11,-2.000000e-05,-2.000000e-05,0.000000e+00,0.000000e+00,0.000000e+00,0.000000e+00,1.100520e-06
4.225000e-11,-2.000000e-05,-2.000000e-05,0.000000e+00,0.000000e+00,0.000000e+00,0.000000e+00,1.100530e-06
4.250000e-11,-2.000000e-05,-2.000000e-05,0.000000e+00,0.000000e+00,0.000000e+00,0.000000e+00,1.100551e-06
4.275000e-11,-2.000000e-05,-2.000000e-05,0.000000e+00,0.000000e+00,0.000000e+00,0.000000e+00,1.100576e-06
4.300000e-11,-2.000000e-05,-2.000000e-05,0.000000e+00,0.000000e+00,0.000000e+00,0.000000e+00,1.100596e-06
4.325000e-11,-2.000000e-05,-2.000000e-05,0.000000e+00,0.000000e+00,0.000000e+00,0.000000e+00,1.100607e-06
4.350000e-11,-2.000000e-05,-2.000000e-05,0.000000e+00,0.000000e+00,0.000000e+00,0.000000e+00,1.100606e-06
4.375000e-11,-2.000000e-05,-2.000000e-05,0.000000e+00,0.000000e+00,0.000000e+00,0.000000e+00,1.100595e-06
4.400000e-11,-2.000000e-05,-2.000000e-05,0.000000e+00,0.000000e+00,0.000000e+00,0.000000e+00,1.100578e-06
4.425000e-11,-2.000000e-05,-2.000000e-05,0.000000e+00,0.000000e+00,0.000000e+00,0.000000e+00,1.100561e-06
4.450000e-11,-2.000000e-05,-2.000000e-05,0.000000e+00,0.000000e+00,0.000000e+00,0.000000e+00,1.100549e-06
4.475000e-11,-2.000000e-05,-2.000000e-05,0.000000e+00,0.000000e+00,0.000000e+00,0.000000e+00,1.100544e-06
4.500000e-11,-2.000000e-05,-2.000000e-05,0.000000e+00,0.000000e+00,0.000000e+00,0.000000e+00,1.100548e-06
4.525000e-11,-2.000000e-05,-2.000000e-05,0.000000e+00,0.000000e+00,0.000000e+00,0.000000e+00,1.100558e-06
4.550000e-11,-2.000000e-05,-2.000000e-05,0.000000e+00,0.000000e+00,0.000000e+00,0.000000e+00,1.100571e-06
4.575000e-11,-2.000000e-05,-2.000000e-05,0.000000e+00,0.000000e+00,0.000000e+00,0.000000e+00,1.100582e-06
4.600000e-11,-2.000000e-05,-2.000000e-05,0.000000e+00,0.000000e+00,0.000000e+00,0.000000e+00,1.100589e-06
4.625000e-11,-2.000000e-05,-2.000000e-05,0.000000e+00,0.000000e+00,0.000000e+00,0.000000e+00,1.100590e-06
4.650000e-11,-2.000000e-05,-2.000000e-05,0.000000e+00,0.000000e+00,0.000000e+00,0.000000e+00,1.100585e-06
