time,"I(LIN2)","I(ID)","I(IY)","I(IX)","I(ICLK)","I(LQR)"
0.000000e+00,0.000000e+00,0.000000e+00,0.000000e+00,0.000000e+00,0.000000e+00,-0.000000e+00
5.000000e-14,-2.481256e-08,2.500000e-07,0.000000e+00,0.000000e+00,0.000000e+00,-5.585575e-09
1.000000e-13,-4.904974e-08,5.000000e-07,0.000000e+00,0.000000e+00,0.000000e+00,-1.146990e-08
1.500000e-13,-7.233185e-08,7.500000e-07,0.000000e+00,0.000000e+00,0.000000e+00,-1.786966e-08
2.000000e-13,-9.431881e-08,1.000000e-06,0.000000e+00,0.000000e+00,0.000000e+00,-2.500825e-08
2.500000e-13,-1.147533e-07,1.250000e-06,0.000000e+00,0.000000e+00,0.000000e+00,-3.310243e-08
3.000000e-13,-1.334881e-07,1.500000e-06,0.000000e+00,0.000000e+00,0.000000e+00,-4.235460e-08
3.500000e-13,-1.505012e-07,1.750000e-06,0.000000e+00,0.000000e+00,0.000000e+00,-5.294777e-08
4.000000e-13,-1.659020e-07,2.000000e-06,0.000000e+00,0.000000e+00,0.000000e+00,-6.504197e-08
4.500000e-13,-1.799278e-07,2.250000e-06,0.000000e+00,0.000000e+00,0.000000e+00,-7.877134e-08
5.000000e-13,-1.929313e-07,2.500000e-06,0.000000e+00,0.000000e+00,0.000000e+00,-9.424196e-08
5.500000e-13,-2.053622e-07,2.750000e-06,0.000000e+00,0.000000e+00,0.000000e+00,-1.115301e-07
6.000000e-13,-2.177408e-07,3.000000e-06,0.000000e+00,0.000000e+00,0.000000e+00,-1.306812e-07
6.500000e-13,-2.306281e-07,3.250000e-06,0.000000e+00,0.000000e+00,0.000000e+00,-1.517089e-07
7.000000e-13,-2.445927e-07,3.500000e-06,0.000000e+00,0.000000e+00,0.000000e+00,-1.745954e-07
7.500000e-13,-2.601775e-07,3.750000e-06,0.000000e+00,0.000000e+00,0.000000e+00,-1.992916e-07
8.000000e-13,-2.778675e-07,4.000000e-06,0.000000e+00,0.000000e+00,0.000000e+00,-2.257180e-07
8.500000e-13,-2.980610e-07,4.250000e-06,0.000000e+00,0.000000e+00,0.000000e+00,-2.537666e-07
9.000000e-13,-3.210455e-07,4.500000e-06,0.000000e+00,0.000000e+00,0.000000e+00,-2.833022e-07
9.500000e-13,-3.469799e-07,4.750000e-06,0.000000e+00,0.000000e+00,0.000000e+00,-3.141652e-07
1.000000e-12,-3.758838e-07,5.000000e-06,0.000000e+00,0.000000e+00,0.000000e+00,-3.461745e-07
1.050000e-12,-4.076338e-07,5.250000e-06,0.000000e+00,0.000000e+00,0.000000e+00,-3.791302e-07
1.100000e-12,-4.419680e-07,5.500000e-06,0.000000e+00,0.000000e+00,0.000000e+00,-4.128175e-07
1.150000e-12,-4.784975e-07,5.750000e-06,0.000000e+00,0.000000e+00,0.000000e+00,-4.470100e-07
1.200000e-12,-5.167251e-07,6.000000e-06,0.000000e+00,0.000000e+00,0.000000e+00,-4.814738e-07
1.250000e-12,-5.560693e-07,6.250000e-06,0.000000e+00,0.000000e+00,0.000000e+00,-5.159715e-07
1.300000e-12,-5.958939e-07,6.500000e-06,0.000000e+00,0.000000e+00,0.000000e+00,-5.502661e-07
1.350000e-12,-6.355398e-07,6.750000e-06,0.000000e+00,0.000000e+00,0.000000e+00,-5.841250e-07
1.400000e-12,-6.743593e-07,7.000000e-06,0.000000e+00,0.000000e+00,0.000000e+00,-6.173242e-07
1.450000e-12,-7.117492e-07,7.250000e-06,0.000000e+00,0.000000e+00,0.000000e+00,-6.496514e-07
1.500000e-12,-7.471823e-07,7.500000e-06,0.000000e+00,0.000000e+00,0.000000e+00,-6.809102e-07
1.550000e-12,-7.802346e-07,7.750000e-06,0.000000e+00,0.000000e+00,0.000000e+00,-7.109230e-07
1.600000e-12,-8.106070e-07,8.000000e-06,0.000000e+00,0.000000e+00,0.000000e+00,-7.395338e-07
1.650000e-12,-8.381401e-07,8.250000e-06,0.000000e+00,0.000000e+00,0.000000e+00,-7.666110e-07
1.700000e-12,-8.628220e-07,8.500000e-06,0.000000e+00,0.000000e+00,0.000000e+00,-7.920492e-07
1.750000e-12,-8.847869e-07,8.750000e-06,0.000000e+00,0.000000e+00,0.000000e+00,-8.157712e-07
1.800000e-12,-9.043073e-07,9.000000e-06,0.000000e+00,0.000000e+00,0.000000e+00,-8.377288e-07
1.850000e-12,-9.217774e-07,9.250000e-06,0.000000e+00,0.000000e+00,0.000000e+00,-8.579035e-07
1.900000e-12,-9.376914e-07,9.500000e-06,0.000000e+00,0.000000e+00,0.000000e+00,-8.763070e-07
1.950000e-12,-9.526162e-07,9.750000e-06,0.000000e+00,0.000000e+00,0.000000e+00,-8.929803e-07
2.000000e-12,-9.671616e-07,1.000000e-05,0.000000e+00,0.000000e+00,0.000000e+00,-9.079934e-07
2.050000e-12,-9.819488e-07,1.025000e-05,0.000000e+00,0.000000e+00,0.000000e+00,-9.214436e-07
2.100000e-12,-9.975791e-07,1.050000e-05,0.000000e+00,0.000000e+00,0.000000e+00,-9.334537e-07
2.150000e-12,-1.014606e-06,1.075000e-05,0.000000e+00,0.000000e+00,0.000000e+00,-9.441700e-07
2.200000e-12,-1.033511e-06,1.100000e-05,0.000000e+00,0.000000e+00,0.000000e+00,-9.537595e-07
2.250000e-12,-1.054681e-06,1.125000e-05,0.000000e+00,0.000000e+00,0.000000e+00,-9.624071e-07
2.300000e-12,-1.078396e-06,1.150000e-05,0.000000e+00,0.000000e+00,0.000000e+00,-9.703121e-07
2.350000e-12,-1.104821e-06,1.175000e-05,0.000000e+00,0.000000e+00,0.000000e+00,-9.776851e-07
2.400000e-12,-1.134001e-06,1.200000e-05,0.000000e+00,0.000000e+00,0.000000e+00,-9.847443e-07
2.450000e-12,-1.165868e-06,1.225000e-05,0.000000e+00,0.000000e+00,0.000000e+00,-9.917114e-07
2.500000e-12,-1.200247e-06,1.250000e-05,0.000000e+00,0.000000e+00,0.000000e+00,-9.988085e-07
2.550000e-12,-1.236874e-06,1.275000e-05,0.000000e+00,0.000000e+00,0.000000e+00,-1.006254e-06
2.600000e-12,-1.275411e-06,1.300000e-05,0.000000e+00,0.000000e+00,0.000000e+00,-1.014258e-06
2.650000e-12,-1.315473e-06,1.325000e-05,0.000000e+00,0.000000e+00,0.000000e+00,-1.023022e-06
2.700000e-12,-1.356649e-06,1.350000e-05,0.000000e+00,0.000000e+00,0.000000e+00,-1.032732e-06
2.750000e-12,-1.398531e-06,1.375000e-05,0.000000e+00,0.000000e+00,0.000000e+00,-1.043555e-06
2.800000e-12,-1.440737e-06,1.400000e-05,0.000000e+00,0.000000e+00,0.000000e+00,-1.055643e-06
2.850000e-12,-1.482941e-06,1.425000e-05,0.000000e+00,0.000000e+00,0.000000e+00,-1.069120e-06
2.900000e-12,-1.524893e-06,1.450000e-05,0.000000e+00,0.000000e+00,0.000000e+00,-1.084090e-06
2.950000e-12,-1.566438e-06,1.475000e-05,0.000000e+00,0.000000e+00,0.000000e+00,-1.100628e-06
3.000000e-12,-1.607532e-06,1.500000e-05,0.000000e+00,0.000000e+00,0.000000e+00,-1.118785e-06
3.050000e-12,-1.648252e-06,1.525000e-05,0.000000e+00,0.000000e+00,0.000000e+00,-1.138581e-06
3.100000e-12,-1.688795e-06,1.550000e-05,0.000000e+00,0.000000e+00,0.000000e+00,-1.160010e-06
3.150000e-12,-1.729481e-06,1.575000e-05,0.000000e+00,0.000000e+00,0.000000e+00,-1.183036e-06
3.200000e-12,-1.770745e-06,1.600000e-05,0.000000e+00,0.000000e+00,0.000000e+00,-1.207597e-06
3.250000e-12,-1.813118e-06,1.625000e-05,0.000000e+00,0.000000e+00,0.000000e+00,-1.233604e-06
3.300000e-12,-1.857218e-06,1.650000e-05,0.000000e+00,0.000000e+00,0.000000e+00,-1.260943e-06
3.350000e-12,-1.903725e-06,1.675000e-05,0.000000e+00,0.000000e+00,0.000000e+00,-1.289477e-06
3.400000e-12,-1.953363e-06,1.700000e-05,0.000000e+00,0.000000e+00,0.000000e+00,-1.319048e-06
3.450000e-12,-2.006873e-06,1.725000e-05,0.000000e+00,0.000000e+00,0.000000e+00,-1.349481e-06
3.500000e-12,-2.064995e-06,1.750000e-05,0.000000e+00,0.000000e+00,0.000000e+00,-1.380584e-06
3.550000e-12,-2.128450e-06,1.775000e-05,0.000000e+00,0.000000e+00,0.000000e+00,-1.412152e-06
3.600000e-12,-2.197916e-06,1.800000e-05,0.000000e+00,0.000000e+00,0.000000e+00,-1.443973e-06
3.650000e-12,-2.274021e-06,1.825000e-05,0.000000e+00,0.000000e+00,0.000000e+00,-1.475828e-06
3.700000e-12,-2.357329e-06,1.850000e-05,0.000000e+00,0.000000e+00,0.000000e+00,-1.507495e-06
3.750000e-12,-2.448333e-06,1.875000e-05,0.000000e+00,0.000000e+00,0.000000e+00,-1.538755e-06
3.800000e-12,-2.547456e-06,1.900000e-05,0.000000e+00,0.000000e+00,0.000000e+00,-1.569391e-06
3.850000e-12,-2.655049e-06,1.925000e-05,0.000000e+00,0.000000e+00,0.000000e+00,-1.599196e-06
3.900000e-12,-2.771401e-06,1.950000e-05,0.000000e+00,0.000000e+00,0.000000e+00,-1.627974e-06
3.950000e-12,-2.896748e-06,1.975000e-05,0.000000e+00,0.000000e+00,0.000000e+00,-1.655541e-06
4.000000e-12,-3.031284e-06,2.000000e-05,0.000000e+00,0.000000e+00,0.000000e+00,-1.681732e-06
4.050000e-12,-3.175182e-06,2.025000e-05,0.000000e+00,0.000000e+00,0.000000e+00,-1.706401e-06
4.100000e-12,-3.328615e-06,2.050000e-05,0.000000e+00,0.000000e+00,0.000000e+00,-1.729422e-06
4.150000e-12,-3.491778e-06,2.075000e-05,0.000000e+00,0.000000e+00,0.000000e+00,-1.750694e-06
4.200000e-12,-3.664914e-06,2.100000e-05,0.000000e+00,0.000000e+00,0.000000e+00,-1.770139e-06
4.250000e-12,-3.848342e-06,2.125000e-05,0.000000e+00,0.000000e+00,0.000000e+00,-1.787705e-06
4.300000e-12,-4.042488e-06,2.150000e-05,0.000000e+00,0.000000e+00,0.000000e+00,-1.803364e-06
4.350000e-12,-4.247906e-06,2.175000e-05,0.000000e+00,0.000000e+00,0.000000e+00,-1.817116e-06
4.400000e-12,-4.465310e-06,2.200000e-05,0.000000e+00,0.000000e+00,0.000000e+00,-1.828983e-06
4.450000e-12,-4.695592e-06,2.225000e-05,0.000000e+00,0.000000e+00,0.000000e+00,-1.839012e-06
4.500000e-12,-4.939840e-06,2.250000e-05,0.000000e+00,0.000000e+00,0.000000e+00,-1.847274e-06
4.550000e-12,-5.199348e-06,2.275000e-05,0.000000e+00,0.000000e+00,0.000000e+00,-1.853859e-06
4.600000e-12,-5.475617e-06,2.300000e-05,0.000000e+00,0.000000e+00,0.000000e+00,-1.858873e-06
4.650000e-12,-5.770350e-06,2.325000e-05,0.000000e+00,0.000000e+00,0.000000e+00,-1.862441e-06
4.700000e-12,-6.085435e-06,2.350000e-05,0.000000e+00,0.000000e+00,0.000000e+00,-1.864700e-06
4.750000e-12,-6.422915e-06,2.375000e-05,0.000000e+00,0.000000e+00,0.000000e+00,-1.865795e-06
4.800000e-12,-6.784958e-06,2.400000e-05,0.000000e+00,0.000000e+00,0.000000e+00,-1.865878e-06
4.850000e-12,-7.173812e-06,2.425000e-05,0.000000e+00,0.000000e+00,0.000000e+00,-1.865106e-06
4.900000e-12,-7.591756e-06,2.450000e-05,0.000000e+00,0.000000e+00,0.000000e+00,-1.863635e-06
4.950000e-12,-8.041048e-06,2.475000e-05,0.000000e+00,0.000000e+00,0.000000e+00,-1.861615e-06
5.000000e-12,-8.523876e-06,2.500000e-05,0.000000e+00,0.000000e+00,0.000000e+00,-1.859193e-06
5.050000e-12,-9.071327e-06,2.525000e-05,0.000000e+00,0.000000e+00,0.000000e+00,-1.850479e-06
5.100000e-12,-9.656674e-06,2.550000e-05,0.000000e+00,0.000000e+00,0.000000e+00,-1.841301e-06
5.150000e-12,-1.028193e-05,2.575000e-05,0.000000e+00,0.000000e+00,0.000000e+00,-1.831534e-06
5.200000e-12,-1.094894e-05,2.600000e-05,0.000000e+00,0.000000e+00,0.000000e+00,-1.821027e-06
5.250000e-12,-1.165945e-05,2.625000e-05,0.000000e+00,0.000000e+00,0.000000e+00,-1.809615e-06
5.300000e-12,-1.241514e-05,2.650000e-05,0.000000e+00,0.000000e+00,0.000000e+00,-1.797126e-06
5.350000e-12,-1.321771e-05,2.675000e-05,0.000000e+00,0.000000e+00,0.000000e+00,-1.783382e-06
5.400000e-12,-1.406900e-05,2.700000e-05,0.000000e+00,0.000000e+00,0.000000e+00,-1.768200e-06
5.450000e-12,-1.497105e-05,2.725000e-05,0.000000e+00,0.000000e+00,0.000000e+00,-1.751399e-06
5.500000e-12,-1.592612e-05,2.750000e-05,0.000000e+00,0.000000e+00,0.000000e+00,-1.732797e-06
5.550000e-12,-1.693667e-05,2.775000e-05,0.000000e+00,0.000000e+00,0.000000e+00,-1.712214e-06
5.600000e-12,-1.800532e-05,2.800000e-05,0.000000e+00,0.000000e+00,0.000000e+00,-1.689475e-06
5.650000e-12,-1.913469e-05,2.825000e-05,0.000000e+00,0.000000e+00,0.000000e+00,-1.664414e-06
5.700000e-12,-2.032726e-05,2.850000e-05,0.000000e+00,0.000000e+00,0.000000e+00,-1.636874e-06
5.750000e-12,-2.158513e-05,2.875000e-05,0.000000e+00,0.000000e+00,0.000000e+00,-1.606712e-06
5.800000e-12,-2.290992e-05,2.900000e-05,0.000000e+00,0.000000e+00,0.000000e+00,-1.573800e-06
5.850000e-12,-2.430257e-05,2.925000e-05,0.000000e+00,0.000000e+00,0.000000e+00,-1.538031e-06
5.900000e-12,-2.576332e-05,2.950000e-05,0.000000e+00,0.000000e+00,0.000000e+00,-1.499316e-06
5.950000e-12,-2.729174e-05,2.975000e-05,0.000000e+00,0.000000e+00,0.000000e+00,-1.457586e-06
6.000000e-12,-2.888682e-05,3.000000e-05,0.000000e+00,0.000000e+00,0.000000e+00,-1.412797e-06
6.050000e-12,-3.054719e-05,3.025000e-05,0.000000e+00,0.000000e+00,0.000000e+00,-1.364923e-06
6.100000e-12,-3.227128e-05,3.050000e-05,0.000000e+00,0.000000e+00,0.000000e+00,-1.313961e-06
6.150000e-12,-3.405755e-05,3.075000e-05,0.000000e+00,0.000000e+00,0.000000e+00,-1.259926e-06
6.200000e-12,-3.590463e-05,3.100000e-05,0.000000e+00,0.000000e+00,0.000000e+00,-1.202854e-06
6.250000e-12,-3.781124e-05,3.125000e-05,0.000000e+00,0.000000e+00,0.000000e+00,-1.142798e-06
6.300000e-12,-3.977615e-05,3.150000e-05,0.000000e+00,0.000000e+00,0.000000e+00,-1.079831e-06
6.350000e-12,-4.179782e-05,3.175000e-05,0.000000e+00,0.000000e+00,0.000000e+00,-1.014049e-06
6.400000e-12,-4.387395e-05,3.200000e-05,0.000000e+00,0.000000e+00,0.000000e+00,-9.455723e-07
6.450000e-12,-4.600104e-05,3.225000e-05,0.000000e+00,0.000000e+00,0.000000e+00,-8.745476e-07
6.500000e-12,-4.817381e-05,3.250000e-05,0.000000e+00,0.000000e+00,0.000000e+00,-8.011533e-07
6.550000e-12,-5.038482e-05,3.275000e-05,0.000000e+00,0.000000e+00,0.000000e+00,-7.256017e-07
6.600000e-12,-5.262420e-05,3.300000e-05,0.000000e+00,0.000000e+00,0.000000e+00,-6.481415e-07
6.650000e-12,-5.487961e-05,3.325000e-05,0.000000e+00,0.000000e+00,0.000000e+00,-5.690587e-07
6.700000e-12,-5.713647e-05,3.350000e-05,0.000000e+00,0.000000e+00,0.000000e+00,-4.886762e-07
6.750000e-12,-5.937832e-05,3.375000e-05,0.000000e+00,0.000000e+00,0.000000e+00,-4.073526e-07
6.800000e-12,-6.158734e-05,3.400000e-05,0.000000e+00,0.000000e+00,0.000000e+00,-3.254799e-07
6.850000e-12,-6.374494e-05,3.425000e-05,0.000000e+00,0.000000e+00,0.000000e+00,-2.434812e-07
6.900000e-12,-6.583220e-05,3.450000e-05,0.000000e+00,0.000000e+00,0.000000e+00,-1.618086e-07
6.950000e-12,-6.783034e-05,3.475000e-05,0.000000e+00,0.000000e+00,0.000000e+00,-8.094176e-08
7.000000e-12,-6.972087e-05,3.500000e-05,0.000000e+00,0.000000e+00,0.000000e+00,-1.386898e-09
7.050000e-12,-7.148584e-05,3.525000e-05,0.000000e+00,0.000000e+00,0.000000e+00,7.632351e-08
7.100000e-12,-7.310781e-05,3.550000e-05,0.000000e+00,0.000000e+00,0.000000e+00,1.516315e-07
7.150000e-12,-7.456995e-05,3.575000e-05,0.000000e+00,0.000000e+00,0.000000e+00,2.239550e-07
7.200000e-12,-7.585618e-05,3.600000e-05,0.000000e+00,0.000000e+00,0.000000e+00,2.926901e-07
7.250000e-12,-7.695142e-05,3.625000e-05,0.000000e+00,0.000000e+00,0.000000e+00,3.572159e-07
7.300000e-12,-7.784197e-05,3.650000e-05,0.000000e+00,0.000000e+00,0.000000e+00,4.168998e-07
7.350000e-12,-7.851603e-05,3.675000e-05,0.000000e+00,0.000000e+00,0.000000e+00,4.711064e-07
7.400000e-12,-7.896420e-05,3.700000e-05,0.000000e+00,0.000000e+00,0.000000e+00,5.192062e-07
7.450000e-12,-7.918011e-05,3.725000e-05,0.000000e+00,0.000000e+00,0.000000e+00,5.605863e-07
7.500000e-12,-7.916081e-05,3.750000e-05,0.000000e+00,0.000000e+00,0.000000e+00,5.946613e-07
7.550000e-12,-7.890717e-05,3.775000e-05,0.000000e+00,0.000000e+00,0.000000e+00,6.208844e-07
7.600000e-12,-7.842394e-05,3.800000e-05,0.000000e+00,0.000000e+00,0.000000e+00,6.387581e-07
7.650000e-12,-7.771972e-05,3.825000e-05,0.000000e+00,0.000000e+00,0.000000e+00,6.478437e-07
7.700000e-12,-7.680659e-05,3.850000e-05,0.000000e+00,0.000000e+00,0.000000e+00,6.477704e-07
7.750000e-12,-7.569961e-05,3.875000e-05,0.000000e+00,0.000000e+00,0.000000e+00,6.382432e-07
7.800000e-12,-7.441613e-05,3.900000e-05,0.000000e+00,0.000000e+00,0.000000e+00,6.190489e-07
7.850000e-12,-7.297502e-05,3.925000e-05,0.000000e+00,0.000000e+00,0.000000e+00,5.900622e-07
7.900000e-12,-7.139599e-05,3.950000e-05,0.000000e+00,0.000000e+00,0.000000e+00,5.512507e-07
7.950000e-12,-6.969883e-05,3.975000e-05,0.000000e+00,0.000000e+00,0.000000e+00,5.026790e-07
8.000000e-12,-6.790303e-05,4.000000e-05,0.000000e+00,0.000000e+00,0.000000e+00,4.445135e-07
8.050000e-12,-6.602742e-05,4.025000e-05,0.000000e+00,0.000000e+00,0.000000e+00,3.770259e-07
8.100000e-12,-6.409002e-05,4.050000e-05,0.000000e+00,0.000000e+00,0.000000e+00,3.005968e-07
8.150000e-12,-6.210809e-05,4.075000e-05,0.000000e+00,0.000000e+00,0.000000e+00,2.157173e-07
8.200000e-12,-6.009814e-05,4.100000e-05,0.000000e+00,0.000000e+00,0.000000e+00,1.229893e-07
8.250000e-12,-5.807596e-05,4.125000e-05,0.000000e+00,0.000000e+00,0.000000e+00,2.312378e-08
8.300000e-12,-5.605657e-05,4.150000e-05,0.000000e+00,0.000000e+00,0.000000e+00,-8.306467e-08
8.350000e-12,-5.405407e-05,4.175000e-05,0.000000e+00,0.000000e+00,0.000000e+00,-1.946653e-07
8.400000e-12,-5.208145e-05,4.200000e-05,0.000000e+00,0.000000e+00,0.000000e+00,-3.106818e-07
8.450000e-12,-5.015025e-05,4.225000e-05,0.000000e+00,0.000000e+00,0.000000e+00,-4.300453e-07
8.500000e-12,-4.827031e-05,4.250000e-05,0.000000e+00,0.000000e+00,0.000000e+00,-5.516292e-07
8.550000e-12,-4.644954e-05,4.275000e-05,0.000000e+00,0.000000e+00,0.000000e+00,-6.742649e-07
8.600000e-12,-4.469389e-05,4.300000e-05,0.000000e+00,0.000000e+00,0.000000e+00,-7.967585e-07
8.650000e-12,-4.300731e-05,4.325000e-05,0.000000e+00,0.000000e+00,0.000000e+00,-9.179075e-07
8.700000e-12,-4.139204e-05,4.350000e-05,0.000000e+00,0.000000e+00,0.000000e+00,-1.036518e-06
8.750000e-12,-3.984886e-05,4.375000e-05,0.000000e+00,0.000000e+00,0.000000e+00,-1.151418e-06
8.800000e-12,-3.837752e-05,4.400000e-05,0.000000e+00,0.000000e+00,0.000000e+00,-1.261479e-06
8.850000e-12,-3.697713e-05,4.425000e-05,0.000000e+00,0.000000e+00,0.000000e+00,-1.365626e-06
8.900000e-12,-3.564654e-05,4.450000e-05,0.000000e+00,0.000000e+00,0.000000e+00,-1.462854e-06
8.950000e-12,-3.438460e-05,4.475000e-05,0.000000e+00,0.000000e+00,0.000000e+00,-1.552243e-06
9.000000e-12,-3.319042e-05,4.500000e-05,0.000000e+00,0.000000e+00,0.000000e+00,-1.632975e-06
9.050000e-12,-3.206339e-05,4.525000e-05,0.000000e+00,0.000000e+00,0.000000e+00,-1.704340e-06
9.100000e-12,-3.100320e-05,4.550000e-05,0.000000e+00,0.000000e+00,0.000000e+00,-1.765753e-06
9.150000e-12,-3.000975e-05,4.575000e-05,0.000000e+00,0.000000e+00,0.000000e+00,-1.816763e-06
9.200000e-12,-2.908299e-05,4.600000e-05,0.000000e+00,0.000000e+00,0.000000e+00,-1.857059e-06
9.250000e-12,-2.822280e-05,4.625000e-05,0.000000e+00,0.000000e+00,0.000000e+00,-1.886480e-06
9.300000e-12,-2.742886e-05,4.650000e-05,0.000000e+00,0.000000e+00,0.000000e+00,-1.905012e-06
9.350000e-12,-2.670054e-05,4.675000e-05,0.000000e+00,0.000000e+00,0.000000e+00,-1.912794e-06
9.400000e-12,-2.603688e-05,4.700000e-05,0.000000e+00,0.000000e+00,0.000000e+00,-1.910113e-06
9.450000e-12,-2.543657e-05,4.725000e-05,0.000000e+00,0.000000e+00,0.000000e+00,-1.897399e-06
9.500000e-12,-2.489806e-05,4.750000e-05,0.000000e+00,0.000000e+00,0.000000e+00,-1.875220e-06
9.550000e-12,-2.441964e-05,4.775000e-05,0.000000e+00,0.000000e+00,0.000000e+00,-1.844266e-06
9.600000e-12,-2.399954e-05,4.800000e-05,0.000000e+00,0.000000e+00,0.000000e+00,-1.805344e-06
9.650000e-12,-2.363607e-05,4.825000e-05,0.000000e+00,0.000000e+00,0.000000e+00,-1.759358e-06
9.700000e-12,-2.332770e-05,4.850000e-05,0.000000e+00,0.000000e+00,0.000000e+00,-1.707297e-06
9.750000e-12,-2.307312e-05,4.875000e-05,0.000000e+00,0.000000e+00,0.000000e+00,-1.650217e-06
9.800000e-12,-2.287130e-05,4.900000e-05,0.000000e+00,0.000000e+00,0.000000e+00,-1.589226e-06
9.850000e-12,-2.272145e-05,4.925000e-05,0.000000e+00,0.000000e+00,0.000000e+00,-1.525461e-06
9.900000e-12,-2.262299e-05,4.950000e-05,0.000000e+00,0.000000e+00,0.000000e+00,-1.460074e-06
9.950000e-12,-2.257549e-05,4.975000e-05,0.000000e+00,0.000000e+00,0.000000e+00,-1.394211e-06
1.000000e-11,-2.257856e-05,5.000000e-05,0.000000e+00,0.000000e+00,0.000000e+00,-1.328996e-06
1.005000e-11,-2.257796e-05,5.000000e-05,0.000000e+00,0.000000e+00,0.000000e+00,-1.265952e-06
1.010000e-11,-2.262725e-05,5.000000e-05,0.000000e+00,0.000000e+00,0.000000e+00,-1.205686e-06
1.015000e-11,-2.272592e-05,5.000000e-05,0.000000e+00,0.000000e+00,0.000000e+00,-1.149163e-06
1.020000e-11,-2.287337e-05,5.000000e-05,0.000000e+00,0.000000e+00,0.000000e+00,-1.097261e-06
1.025000e-11,-2.306883e-05,5.000000e-05,0.000000e+00,0.000000e+00,0.000000e+00,-1.050754e-06
1.030000e-11,-2.331151e-05,5.000000e-05,0.000000e+00,0.000000e+00,0.000000e+00,-1.010299e-06
1.035000e-11,-2.360062e-05,5.000000e-05,0.000000e+00,0.000000e+00,0.000000e+00,-9.764250e-07
1.040000e-11,-2.393553e-05,5.000000e-05,0.000000e+00,0.000000e+00,0.000000e+00,-9.495269e-07
1.045000e-11,-2.431588e-05,5.000000e-05,0.000000e+00,0.000000e+00,0.000000e+00,-9.298550e-07
1.050000e-11,-2.474165e-05,5.000000e-05,0.000000e+00,0.000000e+00,0.000000e+00,-9.175130e-07
1.055000e-11,-2.521332e-05,5.000000e-05,0.000000e+00,0.000000e+00,0.000000e+00,-9.124555e-07
1.060000e-11,-2.573181e-05,5.000000e-05,0.000000e+00,0.000000e+00,0.000000e+00,-9.144895e-07
1.065000e-11,-2.629857e-05,5.000000e-05,0.000000e+00,0.000000e+00,0.000000e+00,-9.232769e-07
