time,"I(IIN_A)","I(IIN_B)","I(ICLK1)","I(ICLK2)","I(LOUT)"
0.000000e+00,0.000000e+00,0.000000e+00,0.000000e+00,0.000000e+00,0.000000e+00
2.500000e-13,-1.000000e-06,-1.000000e-06,0.000000e+00,0.000000e+00,2.519817e-08
5.000000e-13,-2.000000e-06,-2.000000e-06,0.000000e+00,0.000000e+00,6.542011e-08
7.500000e-13,-3.000000e-06,-3.000000e-06,0.000000e+00,0.000000e+00,1.238434e-07
1.000000e-12,-4.000000e-06,-4.000000e-06,0.000000e+00,0.000000e+00,1.975487e-07
1.250000e-12,-5.000000e-06,-5.000000e-06,0.000000e+00,0.000000e+00,2.786857e-07
1.500000e-12,-6.000000e-06,-6.000000e-06,0.000000e+00,0.000000e+00,3.575095e-07
1.750000e-12,-7.000000e-06,-7.000000e-06,0.000000e+00,0.000000e+00,4.259267e-07
2.000000e-12,-8.000000e-06,-8.000000e-06,0.000000e+00,0.000000e+00,4.802050e-07
2.250000e-12,-9.000000e-06,-9.000000e-06,0.000000e+00,0.000000e+00,5.219419e-07
2.500000e-12,-1.000000e-05,-1.000000e-05,0.000000e+00,0.000000e+00,5.570900e-07
2.750000e-12,-1.100000e-05,-1.100000e-05,0.000000e+00,0.000000e+00,5.935266e-07
3.000000e-12,-1.200000e-05,-1.200000e-05,0.000000e+00,0.000000e+00,6.381323e-07
3.250000e-12,-1.300000e-05,-1.300000e-05,0.000000e+00,0.000000e+00,6.944331e-07
3.500000e-12,-1.400000e-05,-1.400000e-05,0.000000e+00,0.000000e+00,7.615873e-07
3.750000e-12,-1.500000e-05,-1.500000e-05,0.000000e+00,0.000000e+00,8.349726e-07
4.000000e-12,-1.600000e-05,-1.600000e-05,0.000000e+00,0.000000e+00,9.080536e-07
4.250000e-12,-1.700000e-05,-1.700000e-05,0.000000e+00,0.000000e+00,9.747904e-07
4.500000e-12,-1.800000e-05,-1.800000e-05,0.000000e+00,0.000000e+00,1.031717e-06
4.750000e-12,-1.900000e-05,-1.900000e-05,0.000000e+00,0.000000e+00,1.078991e-06
5.000000e-12,-2.000000e-05,-2.000000e-05,0.000000e+00,0.000000e+00,1.120123e-06
5.250000e-12,-2.000000e-05,-2.000000e-05,0.000000e+00,0.000000e+00,1.135364e-06
5.500000e-12,-2.000000e-05,-2.000000e-05,0.000000e+00,0.000000e+00,1.140272e-06
5.750000e-12,-2.000000e-05,-2.000000e-05,0.000000e+00,0.000000e+00,1.135142e-06
6.000000e-12,-2.000000e-05,-2.000000e-05,0.000000e+00,0.000000e+00,1.123367e-06
6.250000e-12,-2.000000e-05,-2.000000e-05,0.000000e+00,0.000000e+00,1.110289e-06
6.500000e-12,-2.000000e-05,-2.000000e-05,0.000000e+00,0.000000e+00,1.101188e-06
6.750000e-12,-2.000000e-05,-2.000000e-05,0.000000e+00,0.000000e+00,1.099369e-06
7.000000e-12,-2.000000e-05,-2.000000e-05,0.000000e+00,0.000000e+00,1.105097e-06
7.250000e-12,-2.000000e-05,-2.000000e-05,0.000000e+00,0.000000e+00,1.115725e-06
7.500000e-12,-2.000000e-05,-2.000000e-05,0.000000e+00,0.000000e+00,1.126885e-06
7.750000e-12,-2.000000e-05,-2.000000e-05,0.000000e+00,0.000000e+00,1.134231e-06
8.000000e-12,-2.000000e-05,-2.000000e-05,0.000000e+00,0.000000e+00,1.135065e-06
8.250000e-12,-2.000000e-05,-2.000000e-05,0.000000e+00,0.000000e+00,1.129255e-06
8.500000e-12,-2.000000e-05,-2.000000e-05,0.000000e+00,0.000000e+00,1.119163e-06
8.750000e-12,-2.000000e-05,-2.000000e-05,0.000000e+00,0.000000e+00,1.108665e-06
9.000000e-12,-2.000000e-05,-2.000000e-05,0.000000e+00,0.000000e+00,1.101663e-06
9.250000e-12,-2.000000e-05,-2.000000e-05,0.000000e+00,0.000000e+00,1.100662e-06
9.500000e-12,-2.000000e-05,-2.000000e-05,0.000000e+00,0.000000e+00,1.105916e-06
9.750000e-12,-2.000000e-05,-2.000000e-05,0.000000e+00,0.000000e+00,1.115415e-06
1.000000e-11,-2.000000e-05,-2.000000e-05,0.000000e+00,0.000000e+00,1.125682e-06
1.025000e-11,-2.000000e-05,-2.000000e-05,0.000000e+00,0.000000e+00,1.133061e-06
1.050000e-11,-2.000000e-05,-2.000000e-05,0.000000e+00,0.000000e+00,1.135016e-06
1.075000e-11,-2.000000e-05,-2.000000e-05,0.000000e+00,0.000000e+00,1.130979e-06
1.100000e-11,-2.000000e-05,-2.000000e-05,0.000000e+00,0.000000e+00,1.122487e-06
1.125000e-11,-2.000000e-05,-2.000000e-05,0.000000e+00,0.000000e+00,1.112575e-06
1.150000e-11,-2.000000e-05,-2.000000e-05,0.000000e+00,0.000000e+00,1.104674e-06
1.175000e-11,-2.000000e-05,-2.000000e-05,0.000000e+00,0.000000e+00,1.101421e-06
1.200000e-11,-2.000000e-05,-2.000000e-05,0.000000e+00,0.000000e+00,1.103785e-06
1.225000e-11,-2.000000e-05,-2.000000e-05,0.000000e+00,0.000000e+00,1.110798e-06
1.250000e-11,-2.000000e-05,-2.000000e-05,0.000000e+00,0.000000e+00,1.119959e-06
1.275000e-11,-2.000000e-05,-2.000000e-05,0.000000e+00,0.000000e+00,1.128135e-06
1.300000e-11,-2.000000e-05,-2.000000e-05,0.000000e+00,0.000000e+00,1.132640e-06
1.325000e-11,-2.000000e-05,-2.000000e-05,0.000000e+00,0.000000e+00,1.132113e-06
1.350000e-11,-2.000000e-05,-2.000000e-05,0.000000e+00,0.000000e+00,1.126922e-06
1.375000e-11,-2.000000e-05,-2.000000e-05,0.000000e+00,0.000000e+00,1.118957e-06
1.400000e-11,-2.000000e-05,-2.000000e-05,0.000000e+00,0.000000e+00,1.110949e-06
1.425000e-11,-2.000000e-05,-2.000000e-05,0.000000e+00,0.000000e+00,1.105518e-06
1.450000e-11,-2.000000e-05,-2.000000e-05,0.000000e+00,0.000000e+00,1.104326e-06
1.475000e-11,-2.000000e-05,-2.000000e-05,0.000000e+00,0.000000e+00,1.107568e-06
1.500000e-11,-2.000000e-05,-2.000000e-05,0.000000e+00,0.000000e+00,1.113987e-06
1.525000e-11,-2.000000e-05,-2.000000e-05,0.000000e+00,0.000000e+00,1.121351e-06
1.550000e-11,-2.000000e-05,-2.000000e-05,0.000000e+00,0.000000e+00,1.127235e-06
1.575000e-11,-2.000000e-05,-2.000000e-05,0.000000e+00,0.000000e+00,1.129814e-06
1.600000e-11,-2.000000e-05,-2.000000e-05,0.000000e+00,0.000000e+00,1.128427e-06
1.625000e-11,-2.000000e-05,-2.000000e-05,0.000000e+00,0.000000e+00,1.123730e-06
1.650000e-11,-2.000000e-05,-2.000000e-05,0.000000e+00,0.000000e+00,1.117405e-06
1.675000e-11,-2.000000e-05,-2.000000e-05,0.000000e+00,0.000000e+00,1.111568e-06
1.700000e-11,-2.000000e-05,-2.000000e-05,0.000000e+00,0.000000e+00,1.108056e-06
1.725000e-11,-2.000000e-05,-2.000000e-05,0.000000e+00,0.000000e+00,1.107858e-06
1.750000e-11,-2.000000e-05,-2.000000e-05,0.000000e+00,0.000000e+00,1.110845e-06
1.775000e-11,-2.000000e-05,-2.000000e-05,0.000000e+00,0.000000e+00,1.115879e-06
1.800000e-11,-2.000000e-05,-2.000000e-05,0.000000e+00,0.000000e+00,1.121237e-06
1.825000e-11,-2.000000e-05,-2.000000e-05,0.000000e+00,0.000000e+00,1.125199e-06
1.850000e-11,-2.000000e-05,-2.000000e-05,0.000000e+00,0.000000e+00,1.126597e-06
1.875000e-11,-2.000000e-05,-2.000000e-05,0.000000e+00,0.000000e+00,1.125148e-06
1.900000e-11,-2.000000e-05,-2.000000e-05,0.000000e+00,0.000000e+00,1.121493e-06
1.925000e-11,-2.000000e-05,-2.000000e-05,0.000000e+00,0.000000e+00,1.116928e-06
1.950000e-11,-2.000000e-05,-2.000000e-05,0.000000e+00,0.000000e+00,1.112954e-06
1.975000e-11,-2.000000e-05,-2.000000e-05,0.000000e+00,0.000000e+00,1.110782e-06
2.000000e-11,-2.000000e-05,-2.000000e-05,0.000000e+00,0.000000e+00,1.110975e-06
2.025000e-11,-2.000000e-05,-2.000000e-05,0.000000e+00,0.000000e+00,1.113312e-06
2.050000e-11,-2.000000e-05,-2.000000e-05,0.000000e+00,0.000000e+00,1.116909e-06
2.075000e-11,-2.000000e-05,-2.000000e-05,0.000000e+00,0.000000e+00,1.120551e-06
2.100000e-11,-2.000000e-05,-2.000000e-05,0.000000e+00,0.000000e+00,1.123093e-06
2.125000e-11,-2.000000e-05,-2.000000e-05,0.000000e+00,0.000000e+00,1.123816e-06
2.150000e-11,-2.000000e-05,-2.000000e-05,0.000000e+00,0.000000e+00,1.122627e-06
2.175000e-11,-2.000000e-05,-2.000000e-05,0.000000e+00,0.000000e+00,1.120036e-06
2.200000e-11,-2.000000e-05,-2.000000e-05,0.000000e+00,0.000000e+00,1.116957e-06
2.225000e-11,-2.000000e-05,-2.000000e-05,0.000000e+00,0.000000e+00,1.114386e-06
2.250000e-11,-2.000000e-05,-2.000000e-05,0.000000e+00,0.000000e+00,1.113088e-06
2.275000e-11,-2.000000e-05,-2.000000e-05,0.000000e+00,0.000000e+00,1.113369e-06
2.300000e-11,-2.000000e-05,-2.000000e-05,0.000000e+00,0.000000e+00,1.115022e-06
2.325000e-11,-2.000000e-05,-2.000000e-05,0.000000e+00,0.000000e+00,1.117424e-06
2.350000e-11,-2.000000e-05,-2.000000e-05,0.000000e+00,0.000000e+00,1.119771e-06
2.375000e-11,-2.000000e-05,-2.000000e-05,0.000000e+00,0.000000e+00,1.121339e-06
2.400000e-11,-2.000000e-05,-2.000000e-05,0.000000e+00,0.000000e+00,1.121702e-06
2.425000e-11,-2.000000e-05,-2.000000e-05,0.000000e+00,0.000000e+00,1.120846e-06
2.450000e-11,-2.000000e-05,-2.000000e-05,0.000000e+00,0.000000e+00,1.119134e-06
2.475000e-11,-2.000000e-05,-2.000000e-05,0.000000e+00,0.000000e+00,1.117168e-06
2.500000e-11,-2.000000e-05,-2.000000e-05,0.000000e+00,0.000000e+00,1.115576e-06
2.525000e-11,-2.000000e-05,-2.000000e-05,0.000000e+00,0.000000e+00,1.114820e-06
2.550000e-11,-2.000000e-05,-2.000000e-05,0.000000e+00,0.000000e+00,1.115062e-06
2.575000e-11,-2.000000e-05,-2.000000e-05,0.000000e+00,0.000000e+00,1.116143e-06
2.600000e-11,-2.000000e-05,-2.000000e-05,0.000000e+00,0.000000e+00,1.117657e-06
2.625000e-11,-2.000000e-05,-2.000000e-05,0.000000e+00,0.000000e+00,1.119101e-06
2.650000e-11,-2.000000e-05,-2.000000e-05,0.000000e+00,0.000000e+00,1.120036e-06
2.675000e-11,-2.000000e-05,-2.000000e-05,0.000000e+00,0.000000e+00,1.120219e-06
2.700000e-11,-2.000000e-05,-2.000000e-05,0.000000e+00,0.000000e+00,1.119660e-06
2.725000e-11,-2.000000e-05,-2.000000e-05,0.000000e+00,0.000000e+00,1.118597e-06
2.750000e-11,-2.000000e-05,-2.000000e-05,0.000000e+00,0.000000e+00,1.117403e-06
2.775000e-11,-2.000000e-05,-2.000000e-05,0.000000e+00,0.000000e+00,1.116455e-06
2.800000e-11,-2.000000e-05,-2.000000e-05,0.000000e+00,0.000000e+00,1.116022e-06
2.825000e-11,-2.000000e-05,-2.000000e-05,0.000000e+00,0.000000e+00,1.116188e-06
2.850000e-11,-2.000000e-05,-2.000000e-05,0.000000e+00,0.000000e+00,1.116847e-06
2.875000e-11,-2.000000e-05,-2.000000e-05,0.000000e+00,0.000000e+00,1.117751e-06
2.900000e-11,-2.000000e-05,-2.000000e-05,0.000000e+00,0.000000e+00,1.118601e-06
2.925000e-11,-2.000000e-05,-2.000000e-05,0.000000e+00,0.000000e+00,1.119142e-06
2.950000e-11,-2.000000e-05,-2.000000e-05,0.000000e+00,0.000000e+00,1.119239e-06
2.975000e-11,-2.000000e-05,-2.000000e-05,0.000000e+00,0.000000e+00,1.118906e-06
3.000000e-11,-2.000000e-05,-2.000000e-05,0.000000e+00,0.000000e+00,1.118286e-06
3.025000e-11,-2.000000e-05,-2.000000e-05,0.000000e+00,0.000000e+00,1.117596e-06
3.050000e-11,-2.000000e-05,-2.000000e-05,0.000000e+00,0.000000e+00,1.117053e-06
3.075000e-11,-2.000000e-05,-2.000000e-05,0.000000e+00,0.000000e+00,1.116807e-06
3.100000e-11,-2.000000e-05,-2.000000e-05,0.000000e+00,0.000000e+00,1.116902e-06
3.125000e-11,-2.000000e-05,-2.000000e-05,0.000000e+00,0.000000e+00,1.117275e-06
3.150000e-11,-2.000000e-05,-2.000000e-05,0.000000e+00,0.000000e+00,1.117784e-06
3.175000e-11,-2.000000e-05,-2.000000e-05,0.000000e+00,0.000000e+00,1.118261e-06
3.200000e-11,-2.000000e-05,-2.000000e-05,0.000000e+00,0.000000e+00,1.118566e-06
3.225000e-11,-2.000000e-05,-2.000000e-05,0.000000e+00,0.000000e+00,1.118624e-06
3.250000e-11,-2.000000e-05,-2.000000e-05,0.000000e+00,0.000000e+00,1.118444e-06
3.275000e-11,-2.000000e-05,-2.000000e-05,0.000000e+00,0.000000e+00,1.118107e-06
3.300000e-11,-2.000000e-05,-2.000000e-05,0.000000e+00,0.000000e+00,1.117731e-06
3.325000e-11,-2.000000e-05,-2.000000e-05,0.000000e+00,0.000000e+00,1.117432e-06
3.350000e-11,-2.000000e-05,-2.000000e-05,0.000000e+00,0.000000e+00,1.117293e-06
3.375000e-11,-2.000000e-05,-2.000000e-05,0.000000e+00,0.000000e+00,1.117336e-06
3.400000e-11,-2.000000e-05,-2.000000e-05,0.000000e+00,0.000000e+00,1.117528e-06
3.425000e-11,-2.000000e-05,-2.000000e-05,0.000000e+00,0.000000e+00,1.117795e-06
3.450000e-11,-2.000000e-05,-2.000000e-05,0.000000e+00,0.000000e+00,1.118049e-06
3.475000e-11,-2.000000e-05,-2.000000e-05,0.000000e+00,0.000000e+00,1.118215e-06
3.500000e-11,-2.000000e-05,-2.000000e-05,0.000000e+00,0.000000e+00,1.118255e-06
3.525000e-11,-2.000000e-05,-2.000000e-05,0.000000e+00,0.000000e+00,1.118172e-06
3.550000e-11,-2.000000e-05,-2.000000e-05,0.000000e+00,0.000000e+00,1.118006e-06
3.575000e-11,-2.000000e-05,-2.000000e-05,0.000000e+00,0.000000e+00,1.117814e-06
3.600000e-11,-2.000000e-05,-2.000000e-05,0.000000e+00,0.000000e+00,1.117658e-06
3.625000e-11,-2.000000e-05,-2.000000e-05,0.000000e+00,0.000000e+00,1.117578e-06
3.650000e-11,-2.000000e-05,-2.000000e-05,0.000000e+00,0.000000e+00,1.117588e-06
3.675000e-11,-2.000000e-05,-2.000000e-05,0.000000e+00,0.000000e+00,1.117674e-06
3.700000e-11,-2.000000e-05,-2.000000e-05,0.000000e+00,0.000000e+00,1.117801e-06
3.725000e-11,-2.000000e-05,-2.000000e-05,0.000000e+00,0.000000e+00,1.117926e-06
3.750000e-11,-2.000000e-05,-2.000000e-05,0.000000e+00,0.000000e+00,1.118015e-06
3.775000e-11,-2.000000e-05,-2.000000e-05,0.000000e+00,0.000000e+00,1.118046e-06
3.800000e-11,-2.000000e-05,-2.000000e-05,0.000000e+00,0.000000e+00,1.118018e-06
3.825000e-11,-2.000000e-05,-2.000000e-05,0.000000e+00,0.000000e+00,1.117947e-06
3.850000e-11,-2.000000e-05,-2.000000e-05,0.000000e+00,0.000000e+00,1.117859e-06
3.875000e-11,-2.000000e-05,-2.000000e-05,0.000000e+00,0.000000e+00,1.117782e-06
3.900000e-11,-2.000000e-05,-2.000000e-05,0.000000e+00,0.000000e+00,1.117736e-06
3.925000e-11,-2.000000e-05,-2.000000e-05,0.000000e+00,0.000000e+00,1.117728e-06
3.950000e-11,-2.000000e-05,-2.000000e-05,0.000000e+00,0.000000e+00,1.117756e-06
3.975000e-11,-2.000000e-05,-2.000000e-05,0.000000e+00,0.000000e+00,1.117807e-06
4.000000e-11,-2.000000e-05,-2.000000e-05,0.000000e+00,0.000000e+00,1.117863e-06
4.025000e-11,-2.000000e-05,-2.000000e-05,0.000000e+00,0.000000e+00,1.117908e-06
4.050000e-11,-2.000000e-05,-2.000000e-05,0.000000e+00,0.000000e+00,1.117932e-06
4.075000e-11,-2.000000e-05,-2.000000e-05,0.000000e+00,0.000000e+00,1.117932e-06
4.100000e-11,-2.000000e-05,-2.000000e-05,0.000000e+00,0.000000e+00,1.117912e-06
4.125000e-11,-2.000000e-05,-2.000000e-05,0.000000e+00,0.000000e+00,1.117879e-06
4.150000e-11,-2.000000e-05,-2.000000e-05,0.000000e+00,0.000000e+00,1.117845e-06
4.175000e-11,-2.000000e-05,-2.000000e-05,0.000000e+00,0.000000e+00,1.117817e-06
4.200000e-11,-2.000000e-05,-2.000000e-05,0.000000e+00,0.000000e+00,1.117803e-06
4.225000e-11,-2.000000e-05,-2.000000e-05,0.000000e+00,0.000000e+00,1.117802e-06
4.250000e-11,-2.000000e-05,-2.000000e-05,0.000000e+00,0.000000e+00,1.117814e-06
4.275000e-11,-2.000000e-05,-2.000000e-05,0.000000e+00,0.000000e+00,1.117834e-06
4.300000e-11,-2.000000e-05,-2.000000e-05,0.000000e+00,0.000000e+00,1.117857e-06
4.325000e-11,-2.000000e-05,-2.000000e-05,0.000000e+00,0.000000e+00,1.117876e-06
4.350000e-11,-2.000000e-05,-2.000000e-05,0.000000e+00,0.000000e+00,1.117888e-06
4.375000e-11,-2.000000e-05,-2.000000e-05,0.000000e+00,0.000000e+00,1.117891e-06
4.400000e-11,-2.000000e-05,-2.000000e-05,0.000000e+00,0.000000e+00,1.117885e-06
4.425000e-11,-2.000000e-05,-2.000000e-05,0.000000e+00,0.000000e+00,1.117872e-06
4.450000e-11,-2.000000e-05,-2.000000e-05,0.000000e+00,0.000000e+00,1.117855e-06
4.475000e-11,-2.000000e-05,-2.000000e-05,0.000000e+00,0.000000e+00,1.117839e-06
4.500000e-11,-2.000000e-05,-2.000000e-05,0.000000e+00,0.000000e+00,1.117827e-06
4.525000e-11,-2.000000e-05,-2.000000e-05,0.000000e+00,0.000000e+00,1.117822e-06
4.550000e-11,-2.000000e-05,-2.000000e-05,0.000000e+00,0.000000e+00,1.117826e-06
4.575000e-11,-2.000000e-05,-2.000000e-05,0.000000e+00,0.000000e+00,1.117836e-06
4.600000e-11,-2.000000e-05,-2.000000e-05,0.000000e+00,0.000000e+00,1.117850e-06
4.625000e-11,-2.000000e-05,-2.000000e-05,0.000000e+00,0.000000e+00,1.117865e-06
4.650000e-11,-2.000000e-05,-2.000000e-05,0.000000e+00,0.000000e+00,1.117877e-06
4.675000e-11,-2.000000e-05,-2.000000e-05,0.000000e+00,0.000000e+00,1.117882e-06
4.700000e-11,-2.000000e-05,-2.000000e-05,0.000000e+00,0.000000e+00,1.117879e-06
4.725000e-11,-2.000000e-05,-2.000000e-05,0.000000e+00,0.000000e+00,1.117870e-06
4.750000e-11,-2.000000e-05,-2.000000e-05,0.000000e+00,0.000000e+00,1.117855e-06
4.775000e-11,-2.000000e-05,-2.000000e-05,0.000000e+00,0.000000e+00,1.117841e-06
4.800000e-11,-2.000000e-05,-2.000000e-05,0.000000e+00,0.000000e+00,1.117830e-06
4.825000e-11,-2.000000e-05,-2.000000e-05,0.000000e+00,0.000000e+00,1.117826e-06
4.850000e-11,-2.000000e-05,-2.000000e-05,0.000000e+00,0.000000e+00,1.117830e-06
4.875000e-11,-2.000000e-05,-2.000000e-05,0.000000e+00,0.000000e+00,1.117841e-06
4.900000e-11,-2.000000e-05,-2.000000e-05,0.000000e+00,0.000000e+00,1.117855e-06
4.925000e-11,-2.000000e-05,-2.000000e-05,0.000000e+00,0.000000e+00,1.117868e-06
4.950000e-11,-2.000000e-05,-2.000000e-05,0.000000e+00,0.000000e+00,1.117877e-06
4.975000e-11,-2.000000e-05,-2.000000e-05,0.000000e+00,0.000000e+00,1.117878e-06
5.000000e-11,-2.000000e-05,-2.000000e-05,0.000000e+00,0.000000e+00,1.117872e-06
5.025000e-11,-2.000000e-05,-2.000000e-05,0.000000e+00,0.000000e+00,1.117861e-06
5.050000e-11,-2.000000e-05,-2.000000e-05,0.000000e+00,0.000000e+00,1.117848e-06
5.075000e-11,-2.000000e-05,-2.000000e-05,0.000000e+00,0.000000e+00,1.117837e-06
5.100000e-11,-2.000000e-05,-2.000000e-05,0.000000e+00,0.000000e+00,1.117831e-06
5.125000e-11,-2.000000e-05,-2.000000e-05,0.000000e+00,0.000000e+00,1.117832e-06
5.150000e-11,-2.000000e-05,-2.000000e-05,0.000000e+00,0.000000e+00,1.117840e-06
5.175000e-11,-2.000000e-05,-2.000000e-05,0.000000e+00,0.000000e+00,1.117851e-06
5.200000e-11,-2.000000e-05,-2.000000e-05,0.000000e+00,0.000000e+00,1.117862e-06
5.225000e-11,-2.000000e-05,-2.000000e-05,0.000000e+00,0.000000e+00,1.117871e-06
5.250000e-11,-2.000000e-05,-2.000000e-05,0.000000e+00,0.000000e+00,1.117874e-06
5.275000e-11,-2.000000e-05,-2.000000e-05,0.000000e+00,0.000000e+00,1.117870e-06
5.300000e-11,-2.000000e-05,-2.000000e-05,0.000000e+00,0.000000e+00,1.117862e-06
5.325000e-11,-2.000000e-05,-2.000000e-05,0.000000e+00,0.000000e+00,1.117852e-06
5.350000e-11,-2.000000e-05,-2.000000e-05,0.000000e+00,0.000000e+00,1.117842e-06
5.375000e-11,-2.000000e-05,-2.000000e-05,0.000000e+00,0.000000e+00,1.117837e-06
5.400000e-11,-2.000000e-05,-2.000000e-05,0.000000e+00,0.000000e+00,1.117836e-06
5.425000e-11,-2.000000e-05,-2.000000e-05,0.000000e+00,0.000000e+00,1.117841e-06
5.450000e-11,-2.000000e-05,-2.000000e-05,0.000000e+00,0.000000e+00,1.117850e-06
5.475000e-11,-2.000000e-05,-2.000000e-05,0.000000e+00,0.000000e+00,1.117859e-06
5.500000e-11,-2.000000e-05,-2.000000e-05,0.000000e+00,0.000000e+00,1.117866e-06
5.525000e-11,-2.000000e-05,-2.000000e-05,0.000000e+00,0.000000e+00,1.117869e-06
5.550000e-11,-2.000000e-05,-2.000000e-05,0.000000e+00,0.000000e+00,1.117867e-06
5.575000e-11,-2.000000e-05,-2.000000e-05,0.000000e+00,0.000000e+00,1.117861e-06
5.600000e-11,-2.000000e-05,-2.000000e-05,0.000000e+00,0.000000e+00,1.117853e-06
5.625000e-11,-2.000000e-05,-2.000000e-05,0.000000e+00,0.000000e+00,1.117846e-06
5.650000e-11,-2.000000e-05,-2.000000e-05,0.000000e+00,0.000000e+00,1.117842e-06
5.675000e-11,-2.000000e-05,-2.000000e-05,0.000000e+00,0.000000e+00,1.117841e-06
5.700000e-11,-2.000000e-05,-2.000000e-05,0.000000e+00,0.000000e+00,1.117844e-06
5.725000e-11,-2.000000e-05,-2.000000e-05,0.000000e+00,0.000000e+00,1.117850e-06
5.750000e-11,-2.000000e-05,-2.000000e-05,0.000000e+00,0.000000e+00,1.117856e-06
5.775000e-11,-2.000000e-05,-2.000000e-05,0.000000e+00,0.000000e+00,1.117862e-06
5.800000e-11,-2.000000e-05,-2.000000e-05,0.000000e+00,0.000000e+00,1.117864e-06
5.825000e-11,-2.000000e-05,-2.000000e-05,0.000000e+00,0.000000e+00,1.117863e-06
5.850000e-11,-2.000000e-05,-2.000000e-05,0.000000e+00,0.000000e+00,1.117859e-06
5.875000e-11,-2.000000e-05,-2.000000e-05,0.000000e+00,0.000000e+00,1.117854e-06
5.900000e-11,-2.000000e-05,-2.000000e-05,0.000000e+00,0.000000e+00,1.117849e-06
5.925000e-11,-2.000000e-05,-2.000000e-05,0.000000e+00,0.000000e+00,1.117846e-06
5.950000e-11,-2.000000e-05,-2.000000e-05,0.000000e+00,0.000000e+00,1.117845e-06
5.975000e-11,-2.000000e-05,-2.000000e-05,0.000000e+00,0.000000e+00,1.117847e-06
6.000000e-11,-2.000000e-05,-2.000000e-05,0.000000e+00,0.000000e+00,1.117850e-06
6.025000e-11,-2.000000e-05,-2.000000e-05,0.000000e+00,0.000000e+00,1.117855e-06
6.050000e-11,-2.000000e-05,-2.000000e-05,0.000000e+00,0.000000e+00,1.117859e-06
6.075000e-11,-2.000000e-05,-2.000000e-05,0.000000e+00,0.000000e+00,1.117860e-06
6.100000e-11,-2.000000e-05,-2.000000e-05,0.000000e+00,0.000000e+00,1.117860e-06
6.125000e-11,-2.000000e-05,-2.000000e-05,0.000000e+00,0.000000e+00,1.117858e-06
6.150000e-11,-2.000000e-05,-2.000000e-05,0.000000e+00,0.000000e+00,1.117854e-06
6.175000e-11,-2.000000e-05,-2.000000e-05,0.000000e+00,0.000000e+00,1.117851e-06
6.200000e-11,-2.000000e-05,-2.000000e-05,0.000000e+00,0.000000e+00,1.117849e-06
