time,"I(IIN_A)","I(IIN_B)","I(ICLK)","I(LOUT)"
0.000000e+00,0.000000e+00,0.000000e+00,0.000000e+00,0.000000e+00
2.500000e-13,-1.000000e-06,-1.000000e-06,0.000000e+00,7.421395e-07
5.000000e-13,-2.000000e-06,-2.000000e-06,0.000000e+00,1.456741e-06
7.500000e-13,-3.000000e-06,-3.000000e-06,0.000000e+00,2.135744e-06
1.000000e-12,-4.000000e-06,-4.000000e-06,0.000000e+00,2.781061e-06
1.250000e-12,-5.000000e-06,-5.000000e-06,0.000000e+00,3.403941e-06
1.500000e-12,-6.000000e-06,-6.000000e-06,0.000000e+00,4.021205e-06
1.750000e-12,-7.000000e-06,-7.000000e-06,0.000000e+00,4.649928e-06
2.000000e-12,-8.000000e-06,-8.000000e-06,0.000000e+00,5.302415e-06
2.250000e-12,-9.000000e-06,-9.000000e-06,0.000000e+00,5.982946e-06
2.500000e-12,-1.000000e-05,-1.000000e-05,0.000000e+00,6.687163e-06
2.750000e-12,-1.100000e-05,-1.100000e-05,0.000000e+00,7.404040e-06
3.000000e-12,-1.200000e-05,-1.200000e-05,0.000000e+00,8.119679e-06
3.250000e-12,-1.300000e-05,-1.300000e-05,0.000000e+00,8.821646e-06
3.500000e-12,-1.400000e-05,-1.400000e-05,0.000000e+00,9.502530e-06
3.750000e-12,-1.500000e-05,-1.500000e-05,0.000000e+00,1.016173e-05
4.000000e-12,-1.600000e-05,-1.600000e-05,0.000000e+00,1.080510e-05
4.250000e-12,-1.700000e-05,-1.700000e-05,0.000000e+00,1.144269e-05
4.500000e-12,-1.800000e-05,-1.800000e-05,0.000000e+00,1.208543e-05
4.750000e-12,-1.900000e-05,-1.900000e-05,0.000000e+00,1.274189e-05
5.000000e-12,-2.000000e-05,-2.000000e-05,0.000000e+00,1.341586e-05
5.250000e-12,-2.000000e-05,-2.000000e-05,0.000000e+00,1.336354e-05
5.500000e-12,-2.000000e-05,-2.000000e-05,0.000000e+00,1.334843e-05
5.750000e-12,-2.000000e-05,-2.000000e-05,0.000000e+00,1.337010e-05
6.000000e-12,-2.000000e-05,-2.000000e-05,0.000000e+00,1.341849e-05
6.250000e-12,-2.000000e-05,-2.000000e-05,0.000000e+00,1.347696e-05
6.500000e-12,-2.000000e-05,-2.000000e-05,0.000000e+00,1.352737e-05
6.750000e-12,-2.000000e-05,-2.000000e-05,0.000000e+00,1.355544e-05
7.000000e-12,-2.000000e-05,-2.000000e-05,0.000000e+00,1.355465e-05
7.250000e-12,-2.000000e-05,-2.000000e-05,0.000000e+00,1.352749e-05
7.500000e-12,-2.000000e-05,-2.000000e-05,0.000000e+00,1.348407e-05
7.750000e-12,-2.000000e-05,-2.000000e-05,0.000000e+00,1.343848e-05
8.000000e-12,-2.000000e-05,-2.000000e-05,0.000000e+00,1.340433e-05
8.250000e-12,-2.000000e-05,-2.000000e-05,0.000000e+00,1.339079e-05
8.500000e-12,-2.000000e-05,-2.000000e-05,0.000000e+00,1.340024e-05
8.750000e-12,-2.000000e-05,-2.000000e-05,0.000000e+00,1.342807e-05
9.000000e-12,-2.000000e-05,-2.000000e-05,0.000000e+00,1.346463e-05
9.250000e-12,-2.000000e-05,-2.000000e-05,0.000000e+00,1.349844e-05
9.500000e-12,-2.000000e-05,-2.000000e-05,0.000000e+00,1.351975e-05
9.750000e-12,-2.000000e-05,-2.000000e-05,0.000000e+00,1.352325e-05
1.000000e-11,-2.000000e-05,-2.000000e-05,0.000000e+00,1.350931e-05
1.025000e-11,-2.000000e-05,-2.000000e-05,0.000000e+00,1.348343e-05
1.050000e-11,-2.000000e-05,-2.000000e-05,0.000000e+00,1.345418e-05
1.075000e-11,-2.000000e-05,-2.000000e-05,0.000000e+00,1.343046e-05
1.100000e-11,-2.000000e-05,-2.000000e-05,0.000000e+00,1.341882e-05
1.125000e-11,-2.000000e-05,-2.000000e-05,0.000000e+00,1.342175e-05
1.150000e-11,-2.000000e-05,-2.000000e-05,0.000000e+00,1.343723e-05
1.175000e-11,-2.000000e-05,-2.000000e-05,0.000000e+00,1.345972e-05
1.200000e-11,-2.000000e-05,-2.000000e-05,0.000000e+00,1.348201e-05
1.225000e-11,-2.000000e-05,-2.000000e-05,0.000000e+00,1.349755e-05
1.250000e-11,-2.000000e-05,-2.000000e-05,0.000000e+00,1.350230e-05
1.275000e-11,-2.000000e-05,-2.000000e-05,0.000000e+00,1.349569e-05
1.300000e-11,-2.000000e-05,-2.000000e-05,0.000000e+00,1.348058e-05
1.325000e-11,-2.000000e-05,-2.000000e-05,0.000000e+00,1.346209e-05
1.350000e-11,-2.000000e-05,-2.000000e-05,0.000000e+00,1.344595e-05
1.375000e-11,-2.000000e-05,-2.000000e-05,0.000000e+00,1.343672e-05
1.400000e-11,-2.000000e-05,-2.000000e-05,0.000000e+00,1.343660e-05
1.425000e-11,-2.000000e-05,-2.000000e-05,0.000000e+00,1.344489e-05
1.450000e-11,-2.000000e-05,-2.000000e-05,0.000000e+00,1.345848e-05
1.475000e-11,-2.000000e-05,-2.000000e-05,0.000000e+00,1.347296e-05
1.500000e-11,-2.000000e-05,-2.000000e-05,0.000000e+00,1.348397e-05
1.525000e-11,-2.000000e-05,-2.000000e-05,0.000000e+00,1.348855e-05
1.550000e-11,-2.000000e-05,-2.000000e-05,0.000000e+00,1.348584e-05
1.575000e-11,-2.000000e-05,-2.000000e-05,0.000000e+00,1.347723e-05
1.600000e-11,-2.000000e-05,-2.000000e-05,0.000000e+00,1.346572e-05
1.625000e-11,-2.000000e-05,-2.000000e-05,0.000000e+00,1.345493e-05
1.650000e-11,-2.000000e-05,-2.000000e-05,0.000000e+00,1.344799e-05
1.675000e-11,-2.000000e-05,-2.000000e-05,0.000000e+00,1.344664e-05
1.700000e-11,-2.000000e-05,-2.000000e-05,0.000000e+00,1.345085e-05
1.725000e-11,-2.000000e-05,-2.000000e-05,0.000000e+00,1.345892e-05
1.750000e-11,-2.000000e-05,-2.000000e-05,0.000000e+00,1.346818e-05
1.775000e-11,-2.000000e-05,-2.000000e-05,0.000000e+00,1.347580e-05
1.800000e-11,-2.000000e-05,-2.000000e-05,0.000000e+00,1.347966e-05
1.825000e-11,-2.000000e-05,-2.000000e-05,0.000000e+00,1.347892e-05
1.850000e-11,-2.000000e-05,-2.000000e-05,0.000000e+00,1.347416e-05
1.875000e-11,-2.000000e-05,-2.000000e-05,0.000000e+00,1.346710e-05
1.900000e-11,-2.000000e-05,-2.000000e-05,0.000000e+00,1.346001e-05
1.925000e-11,-2.000000e-05,-2.000000e-05,0.000000e+00,1.345497e-05
1.950000e-11,-2.000000e-05,-2.000000e-05,0.000000e+00,1.345332e-05
1.975000e-11,-2.000000e-05,-2.000000e-05,0.000000e+00,1.345528e-05
2.000000e-11,-2.000000e-05,-2.000000e-05,0.000000e+00,1.345997e-05
2.025000e-11,-2.000000e-05,-2.000000e-05,0.000000e+00,1.346581e-05
2.050000e-11,-2.000000e-05,-2.000000e-05,0.000000e+00,1.347097e-05
2.075000e-11,-2.000000e-05,-2.000000e-05,0.000000e+00,1.347400e-05
2.100000e-11,-2.000000e-05,-2.000000e-05,0.000000e+00,1.347416e-05
2.125000e-11,-2.000000e-05,-2.000000e-05,0.000000e+00,1.347163e-05
2.150000e-11,-2.000000e-05,-2.000000e-05,0.000000e+00,1.346737e-05
2.175000e-11,-2.000000e-05,-2.000000e-05,0.000000e+00,1.346278e-05
2.200000e-11,-2.000000e-05,-2.000000e-05,0.000000e+00,1.345923e-05
2.225000e-11,-2.000000e-05,-2.000000e-05,0.000000e+00,1.345769e-05
2.250000e-11,-2.000000e-05,-2.000000e-05,0.000000e+00,1.345846e-05
2.275000e-11,-2.000000e-05,-2.000000e-05,0.000000e+00,1.346112e-05
2.300000e-11,-2.000000e-05,-2.000000e-05,0.000000e+00,1.346475e-05
2.325000e-11,-2.000000e-05,-2.000000e-05,0.000000e+00,1.346819e-05
2.350000e-11,-2.000000e-05,-2.000000e-05,0.000000e+00,1.347044e-05
2.375000e-11,-2.000000e-05,-2.000000e-05,0.000000e+00,1.347095e-05
2.400000e-11,-2.000000e-05,-2.000000e-05,0.000000e+00,1.346968e-05
2.425000e-11,-2.000000e-05,-2.000000e-05,0.000000e+00,1.346716e-05
2.450000e-11,-2.000000e-05,-2.000000e-05,0.000000e+00,1.346423e-05
2.475000e-11,-2.000000e-05,-2.000000e-05,0.000000e+00,1.346179e-05
2.500000e-11,-2.000000e-05,-2.000000e-05,0.000000e+00,1.346051e-05
2.525000e-11,-2.000000e-05,-2.000000e-05,0.000000e+00,1.346069e-05
2.550000e-11,-2.000000e-05,-2.000000e-05,0.000000e+00,1.346215e-05
2.575000e-11,-2.000000e-05,-2.000000e-05,0.000000e+00,1.346436e-05
2.600000e-11,-2.000000e-05,-2.000000e-05,0.000000e+00,1.346662e-05
2.625000e-11,-2.000000e-05,-2.000000e-05,0.000000e+00,1.346825e-05
2.650000e-11,-2.000000e-05,-2.000000e-05,0.000000e+00,1.346882e-05
2.675000e-11,-2.000000e-05,-2.000000e-05,0.000000e+00,1.346824e-05
2.700000e-11,-2.000000e-05,-2.000000e-05,0.000000e+00,1.346679e-05
2.725000e-11,-2.000000e-05,-2.000000e-05,0.000000e+00,1.346494e-05
2.750000e-11,-2.000000e-05,-2.000000e-05,0.000000e+00,1.346329e-05
2.775000e-11,-2.000000e-05,-2.000000e-05,0.000000e+00,1.346230e-05
2.800000e-11,-2.000000e-05,-2.000000e-05,0.000000e+00,1.346221e-05
2.825000e-11,-2.000000e-05,-2.000000e-05,0.000000e+00,1.346298e-05
2.850000e-11,-2.000000e-05,-2.000000e-05,0.000000e+00,1.346431e-05
2.875000e-11,-2.000000e-05,-2.000000e-05,0.000000e+00,1.346577e-05
2.900000e-11,-2.000000e-05,-2.000000e-05,0.000000e+00,1.346691e-05
2.925000e-11,-2.000000e-05,-2.000000e-05,0.000000e+00,1.346743e-05
2.950000e-11,-2.000000e-05,-2.000000e-05,0.000000e+00,1.346721e-05
2.975000e-11,-2.000000e-05,-2.000000e-05,0.000000e+00,1.346639e-05
3.000000e-11,-2.000000e-05,-2.000000e-05,0.000000e+00,1.346525e-05
3.025000e-11,-2.000000e-05,-2.000000e-05,0.000000e+00,1.346416e-05
3.050000e-11,-2.000000e-05,-2.000000e-05,0.000000e+00,1.346342e-05
3.075000e-11,-2.000000e-05,-2.000000e-05,0.000000e+00,1.346324e-05
3.100000e-11,-2.000000e-05,-2.000000e-05,0.000000e+00,1.346362e-05
3.125000e-11,-2.000000e-05,-2.000000e-05,0.000000e+00,1.346440e-05
3.150000e-11,-2.000000e-05,-2.000000e-05,0.000000e+00,1.346533e-05
3.175000e-11,-2.000000e-05,-2.000000e-05,0.000000e+00,1.346611e-05
3.200000e-11,-2.000000e-05,-2.000000e-05,0.000000e+00,1.346654e-05
3.225000e-11,-2.000000e-05,-2.000000e-05,0.000000e+00,1.346650e-05
3.250000e-11,-2.000000e-05,-2.000000e-05,0.000000e+00,1.346605e-05
3.275000e-11,-2.000000e-05,-2.000000e-05,0.000000e+00,1.346536e-05
3.300000e-11,-2.000000e-05,-2.000000e-05,0.000000e+00,1.346464e-05
3.325000e-11,-2.000000e-05,-2.000000e-05,0.000000e+00,1.346411e-05
3.350000e-11,-2.000000e-05,-2.000000e-05,0.000000e+00,1.346392e-05
3.375000e-11,-2.000000e-05,-2.000000e-05,0.000000e+00,1.346409e-05
3.400000e-11,-2.000000e-05,-2.000000e-05,0.000000e+00,1.346454e-05
3.425000e-11,-2.000000e-05,-2.000000e-05,0.000000e+00,1.346512e-05
3.450000e-11,-2.000000e-05,-2.000000e-05,0.000000e+00,1.346565e-05
3.475000e-11,-2.000000e-05,-2.000000e-05,0.000000e+00,1.346597e-05
3.500000e-11,-2.000000e-05,-2.000000e-05,0.000000e+00,1.346601e-05
3.525000e-11,-2.000000e-05,-2.000000e-05,0.000000e+00,1.346578e-05
3.550000e-11,-2.000000e-05,-2.000000e-05,0.000000e+00,1.346536e-05
3.575000e-11,-2.000000e-05,-2.000000e-05,0.000000e+00,1.346490e-05
3.600000e-11,-2.000000e-05,-2.000000e-05,0.000000e+00,1.346453e-05
3.625000e-11,-2.000000e-05,-2.000000e-05,0.000000e+00,1.346436e-05
3.650000e-11,-2.000000e-05,-2.000000e-05,0.000000e+00,1.346442e-05
3.675000e-11,-2.000000e-05,-2.000000e-05,0.000000e+00,1.346467e-05
3.700000e-11,-2.000000e-05,-2.000000e-05,0.000000e+00,1.346503e-05
3.725000e-11,-2.000000e-05,-2.000000e-05,0.000000e+00,1.346538e-05
3.750000e-11,-2.000000e-05,-2.000000e-05,0.000000e+00,1.346562e-05
3.775000e-11,-2.000000e-05,-2.000000e-05,0.000000e+00,1.346568e-05
3.800000e-11,-2.000000e-05,-2.000000e-05,0.000000e+00,1.346557e-05
3.825000e-11,-2.000000e-05,-2.000000e-05,0.000000e+00,1.346532e-05
3.850000e-11,-2.000000e-05,-2.000000e-05,0.000000e+00,1.346503e-05
3.875000e-11,-2.000000e-05,-2.000000e-05,0.000000e+00,1.346478e-05
3.900000e-11,-2.000000e-05,-2.000000e-05,0.000000e+00,1.346464e-05
3.925000e-11,-2.000000e-05,-2.000000e-05,0.000000e+00,1.346465e-05
3.950000e-11,-2.000000e-05,-2.000000e-05,0.000000e+00,1.346478e-05
3.975000e-11,-2.000000e-05,-2.000000e-05,0.000000e+00,1.346500e-05
4.000000e-11,-2.000000e-05,-2.000000e-05,0.000000e+00,1.346523e-05
4.025000e-11,-2.000000e-05,-2.000000e-05,0.000000e+00,1.346540e-05
4.050000e-11,-2.000000e-05,-2.000000e-05,0.000000e+00,1.346547e-05
4.075000e-11,-2.000000e-05,-2.000000e-05,0.000000e+00,1.346542e-05
4.100000e-11,-2.000000e-05,-2.000000e-05,0.000000e+00,1.346528e-05
4.125000e-11,-2.000000e-05,-2.000000e-05,0.000000e+00,1.346509e-05
4.150000e-11,-2.000000e-05,-2.000000e-05,0.000000e+00,1.346493e-05
4.175000e-11,-2.000000e-05,-2.000000e-05,0.000000e+00,1.346482e-05
4.200000e-11,-2.000000e-05,-2.000000e-05,0.000000e+00,1.346480e-05
4.225000e-11,-2.000000e-05,-2.000000e-05,0.000000e+00,1.346487e-05
4.250000e-11,-2.000000e-05,-2.000000e-05,0.000000e+00,1.346500e-05
4.275000e-11,-2.000000e-05,-2.000000e-05,0.000000e+00,1.346515e-05
4.300000e-11,-2.000000e-05,-2.000000e-05,0.000000e+00,1.346527e-05
4.325000e-11,-2.000000e-05,-2.000000e-05,0.000000e+00,1.346533e-05
4.350000e-11,-2.000000e-05,-2.000000e-05,0.000000e+00,1.346531e-05
4.375000e-11,-2.000000e-05,-2.000000e-05,0.000000e+00,1.346523e-05
4.400000e-11,-2.000000e-05,-2.000000e-05,0.000000e+00,1.346512e-05
4.425000e-11,-2.000000e-05,-2.000000e-05,0.000000e+00,1.346501e-05
4.450000e-11,-2.000000e-05,-2.000000e-05,0.000000e+00,1.346493e-05
4.475000e-11,-2.000000e-05,-2.000000e-05,0.000000e+00,1.346491e-05
4.500000e-11,-2.000000e-05,-2.000000e-05,0.000000e+00,1.346494e-05
4.525000e-11,-2.000000e-05,-2.000000e-05,0.000000e+00,1.346502e-05
4.550000e-11,-2.000000e-05,-2.000000e-05,0.000000e+00,1.346511e-05
4.575000e-11,-2.000000e-05,-2.000000e-05,0.000000e+00,1.346519e-05
4.600000e-11,-2.000000e-05,-2.000000e-05,0.000000e+00,1.346524e-05
4.625000e-11,-2.000000e-05,-2.000000e-05,0.000000e+00,1.346524e-05
4.650000e-11,-2.000000e-05,-2.000000e-05,0.000000e+00,1.346519e-05
4.675000e-11,-2.000000e-05,-2.000000e-05,0.000000e+00,1.346513e-05
4.700000e-11,-2.000000e-05,-2.000000e-05,0.000000e+00,1.346505e-05
4.725000e-11,-2.000000e-05,-2.000000e-05,0.000000e+00,1.346500e-05
4.750000e-11,-2.000000e-05,-2.000000e-05,0.000000e+00,1.346498e-05
4.775000e-11,-2.000000e-05,-2.000000e-05,0.000000e+00,1.346499e-05
4.800000e-11,-2.000000e-05,-2.000000e-05,0.000000e+00,1.346503e-05
4.825000e-11,-2.000000e-05,-2.000000e-05,0.000000e+00,1.346509e-05
4.850000e-11,-2.000000e-05,-2.000000e-05,0.000000e+00,1.346515e-05
4.875000e-11,-2.000000e-05,-2.000000e-05,0.000000e+00,1.346518e-05
4.900000e-11,-2.000000e-05,-2.000000e-05,0.000000e+00,1.346519e-05
4.925000e-11,-2.000000e-05,-2.000000e-05,0.000000e+00,1.346517e-05
4.950000e-11,-2.000000e-05,-2.000000e-05,0.000000e+00,1.346512e-05
4.975000e-11,-2.000000e-05,-2.000000e-05,0.000000e+00,1.346508e-05
5.000000e-11,-2.000000e-05,-2.000000e-05,0.000000e+00,1.346504e-05
5.025000e-11,-2.000000e-05,-2.000000e-05,0.000000e+00,1.346502e-05
5.050000e-11,-2.000000e-05,-2.000000e-05,0.000000e+00,1.346503e-05
5.075000e-11,-2.000000e-05,-2.000000e-05,0.000000e+00,1.346505e-05
5.100000e-11,-2.000000e-05,-2.000000e-05,0.000000e+00,1.346509e-05
5.125000e-11,-2.000000e-05,-2.000000e-05,0.000000e+00,1.346512e-05
5.150000e-11,-2.000000e-05,-2.000000e-05,0.000000e+00,1.346515e-05
5.175000e-11,-2.000000e-05,-2.000000e-05,0.000000e+00,1.346515e-05
5.200000e-11,-2.000000e-05,-2.000000e-05,0.000000e+00,1.346514e-05
5.225000e-11,-2.000000e-05,-2.000000e-05,0.000000e+00,1.346512e-05
5.250000e-11,-2.000000e-05,-2.000000e-05,0.000000e+00,1.346509e-05
5.275000e-11,-2.000000e-05,-2.000000e-05,0.000000e+00,1.346506e-05
5.300000e-11,-2.000000e-05,-2.000000e-05,0.000000e+00,1.346505e-05
5.325000e-11,-2.000000e-05,-2.000000e-05,0.000000e+00,1.346505e-05
5.350000e-11,-2.000000e-05,-2.000000e-05,0.000000e+00,1.346506e-05
5.375000e-11,-2.000000e-05,-2.000000e-05,0.000000e+00,1.346508e-05
5.400000e-11,-2.000000e-05,-2.000000e-05,0.000000e+00,1.346511e-05
5.425000e-11,-2.000000e-05,-2.000000e-05,0.000000e+00,1.346512e-05
5.450000e-11,-2.000000e-05,-2.000000e-05,0.000000e+00,1.346513e-05
5.475000e-11,-2.000000e-05,-2.000000e-05,0.000000e+00,1.346513e-05
5.500000e-11,-2.000000e-05,-2.000000e-05,0.000000e+00,1.346511e-05
5.525000e-11,-2.000000e-05,-2.000000e-05,0.000000e+00,1.346510e-05
5.550000e-11,-2.000000e-05,-2.000000e-05,0.000000e+00,1.346508e-05
5.575000e-11,-2.000000e-05,-2.000000e-05,0.000000e+00,1.346507e-05
5.600000e-11,-2.000000e-05,-2.000000e-05,0.000000e+00,1.346507e-05
5.625000e-11,-2.000000e-05,-2.000000e-05,0.000000e+00,1.346507e-05
5.650000e-11,-2.000000e-05,-2.000000e-05,0.000000e+00,1.346508e-05
5.675000e-11,-2.000000e-05,-2.000000e-05,0.000000e+00,1.346510e-05
5.700000e-11,-2.000000e-05,-2.000000e-05,0.000000e+00,1.346511e-05
5.725000e-11,-2.000000e-05,-2.000000e-05,0.000000e+00,1.346512e-05
5.750000e-11,-2.000000e-05,-2.000000e-05,0.000000e+00,1.346512e-05
5.775000e-11,-2.000000e-05,-2.000000e-05,0.000000e+00,1.346511e-05
5.800000e-11,-2.000000e-05,-2.000000e-05,0.000000e+00,1.346510e-05
5.825000e-11,-2.000000e-05,-2.000000e-05,0.000000e+00,1.346509e-05
5.850000e-11,-2.000000e-05,-2.000000e-05,0.000000e+00,1.346508e-05
5.875000e-11,-2.000000e-05,-2.000000e-05,0.000000e+00,1.346508e-05
5.900000e-11,-2.000000e-05,-2.000000e-05,0.000000e+00,1.346508e-05
5.925000e-11,-2.000000e-05,-2.000000e-05,0.000000e+00,1.346509e-05
5.950000e-11,-2.000000e-05,-2.000000e-05,0.000000e+00,1.346510e-05
5.975000e-11,-2.000000e-05,-2.000000e-05,0.000000e+00,1.346510e-05
6.000000e-11,-2.000000e-05,-2.000000e-05,0.000000e+00,1.346511e-05
6.025000e-11,-2.000000e-05,-2.000000e-05,0.000000e+00,1.346511e-05
6.050000e-11,-2.000000e-05,-2.000000e-05,0.000000e+00,1.346511e-05
6.075000e-11,-2.000000e-05,-2.000000e-05,0.000000e+00,1.346510e-05
6.100000e-11,-2.000000e-05,-2.000000e-05,0.000000e+00,1.346509e-05
6.125000e-11,-2.000000e-05,-2.000000e-05,0.000000e+00,1.346509e-05
6.150000e-11,-2.000000e-05,-2.000000e-05,0.000000e+00,1.346508e-05
6.175000e-11,-2.000000e-05,-2.000000e-05,0.000000e+00,1.346508e-05
6.200000e-11,-2.000000e-05,-2.000000e-05,0.000000e+00,1.346509e-05
6.225000e-11,-2.000000e-05,-2.000000e-05,0.000000e+00,1.346509e-05
6.250000e-11,-2.000000e-05,-2.000000e-05,0.000000e+00,1.346510e-05
6.275000e-11,-2.000000e-05,-2.000000e-05,0.000000e+00,1.346510e-05
6.300000e-11,-2.000000e-05,-2.000000e-05,0.000000e+00,1.346510e-05
6.325000e-11,-2.000000e-05,-2.000000e-05,0.000000e+00,1.346510e-05
6.350000e-11,-2.000000e-05,-2.000000e-05,0.000000e+00,1.346510e-05
6.375000e-11,-2.000000e-05,-2.000000e-05,0.000000e+00,1.346509e-05
6.400000e-11,-2.000000e-05,-2.000000e-05,0.000000e+00,1.346509e-05
6.425000e-11,-2.000000e-05,-2.000000e-05,0.000000e+00,1.346509e-05
6.450000e-11,-2.000000e-05,-2.000000e-05,0.000000e+00,1.346509e-05
6.475000e-11,-2.000000e-05,-2.000000e-05,0.000000e+00,1.346509e-05
6.500000e-11,-2.000000e-05,-2.000000e-05,0.000000e+00,1.346509e-05
6.525000e-11,-2.000000e-05,-2.000000e-05,0.000000e+00,1.346510e-05
6.550000e-11,-2.000000e-05,-2.000000e-05,0.000000e+00,1.346510e-05
6.575000e-11,-2.000000e-05,-2.000000e-05,0.000000e+00,1.346510e-05
6.600000e-11,-2.000000e-05,-2.000000e-05,0.000000e+00,1.346510e-05
6.625000e-11,-2.000000e-05,-2.000000e-05,0.000000e+00,1.346510e-05
6.650000e-11,-2.000000e-05,-2.000000e-05,0.000000e+00,1.346509e-05
6.675000e-11,-2.000000e-05,-2.000000e-05,0.000000e+00,1.346509e-05
6.700000e-11,-2.000000e-05,-2.000000e-05,0.000000e+00,1.346509e-05
6.725000e-11,-2.000000e-05,-2.000000e-05,0.000000e+00,1.346509e-05
6.750000e-11,-2.000000e-05,-2.000000e-05,0.000000e+00,1.346509e-05
6.775000e-11,-2.000000e-05,-2.000000e-05,0.000000e+00,1.346509e-05
6.800000e-11,-2.000000e-05,-2.000000e-05,0.000000e+00,1.346510e-05
6.825000e-11,-2.000000e-05,-2.000000e-05,0.000000e+00,1.346510e-05
6.850000e-11,-2.000000e-05,-2.000000e-05,0.000000e+00,1.346510e-05
6.875000e-11,-2.000000e-05,-2.000000e-05,0.000000e+00,1.346510e-05
6.900000e-11,-2.000000e-05,-2.000000e-05,0.000000e+00,1.346510e-05
6.925000e-11,-2.000000e-05,-2.000000e-05,0.000000e+00,1.346509e-05
6.950000e-11,-2.000000e-05,-2.000000e-05,0.000000e+00,1.346509e-05
6.975000e-11,-2.000000e-05,-2.000000e-05,0.000000e+00,1.346509e-05
7.000000e-11,-2.000000e-05,-2.000000e-05,0.000000e+00,1.346509e-05
7.025000e-11,-2.000000e-05,-2.000000e-05,0.000000e+00,1.346509e-05
7.050000e-11,-2.000000e-05,-2.000000e-05,0.000000e+00,1.346509e-05
7.075000e-11,-2.000000e-05,-2.000000e-05,0.000000e+00,1.346509e-05
7.100000e-11,-2.000000e-05,-2.000000e-05,0.000000e+00,1.346510e-05
7.125000e-11,-2.000000e-05,-2.000000e-05,0.000000e+00,1.346510e-05
7.150000e-11,-2.000000e-05,-2.000000e-05,0.000000e+00,1.346510e-05
7.175000e-11,-2.000000e-05,-2.000000e-05,0.000000e+00,1.346510e-05
7.200000e-11,-2.000000e-05,-2.000000e-05,0.000000e+00,1.346510e-05
7.225000e-11,-2.000000e-05,-2.000000e-05,0.000000e+00,1.346509e-05
7.250000e-11,-2.000000e-05,-2.000000e-05,0.000000e+00,1.346509e-05
7.275000e-11,-2.000000e-05,-2.000000e-05,0.000000e+00,1.346509e-05
7.300000e-11,-2.000000e-05,-2.000000e-05,0.000000e+00,1.346509e-05
7.325000e-11,-2.000000e-05,-2.000000e-05,0.000000e+00,1.346509e-05
7.350000e-11,-2.000000e-05,-2.000000e-05,0.000000e+00,1.346509e-05
7.375000e-11,-2.000000e-05,-2.000000e-05,0.000000e+00,1.346510e-05
7.400000e-11,-2.000000e-05,-2.000000e-05,0.000000e+00,1.346510e-05
