time,"I(IIN)","I(IXIN)","I(LOUT)"
0.000000e+00,0.000000e+00,0.000000e+00,0.000000e+00
2.500000e-13,-1.000000e-06,0.000000e+00,2.869636e-08
5.000000e-13,-2.000000e-06,0.000000e+00,7.660940e-08
7.500000e-13,-3.000000e-06,0.000000e+00,1.492924e-07
1.000000e-12,-4.000000e-06,0.000000e+00,2.453013e-07
1.250000e-12,-5.000000e-06,0.000000e+00,3.566778e-07
1.500000e-12,-6.000000e-06,0.000000e+00,4.716401e-07
1.750000e-12,-7.000000e-06,0.000000e+00,5.783291e-07
2.000000e-12,-8.000000e-06,0.000000e+00,6.683253e-07
2.250000e-12,-9.000000e-06,0.000000e+00,7.388737e-07
2.500000e-12,-1.000000e-05,0.000000e+00,7.932471e-07
2.750000e-12,-1.100000e-05,0.000000e+00,8.392843e-07
3.000000e-12,-1.200000e-05,0.000000e+00,8.866855e-07
3.250000e-12,-1.300000e-05,0.000000e+00,9.439715e-07
3.500000e-12,-1.400000e-05,0.000000e+00,1.016038e-06
3.750000e-12,-1.500000e-05,0.000000e+00,1.102988e-06
4.000000e-12,-1.600000e-05,0.000000e+00,1.200492e-06
4.250000e-12,-1.700000e-05,0.000000e+00,1.301431e-06
4.500000e-12,-1.800000e-05,0.000000e+00,1.398245e-06
4.750000e-12,-1.900000e-05,0.000000e+00,1.485215e-06
5.000000e-12,-2.000000e-05,0.000000e+00,1.560018e-06
5.250000e-12,-2.000000e-05,0.000000e+00,1.595447e-06
5.500000e-12,-2.000000e-05,0.000000e+00,1.605495e-06
5.750000e-12,-2.000000e-05,0.000000e+00,1.590561e-06
6.000000e-12,-2.000000e-05,0.000000e+00,1.557594e-06
6.250000e-12,-2.000000e-05,0.000000e+00,1.518020e-06
6.500000e-12,-2.000000e-05,0.000000e+00,1.484199e-06
6.750000e-12,-2.000000e-05,0.000000e+00,1.465757e-06
7.000000e-12,-2.000000e-05,0.000000e+00,1.466961e-06
7.250000e-12,-2.000000e-05,0.000000e+00,1.485892e-06
7.500000e-12,-2.000000e-05,0.000000e+00,1.515511e-06
7.750000e-12,-2.000000e-05,0.000000e+00,1.546159e-06
8.000000e-12,-2.000000e-05,0.000000e+00,1.568644e-06
8.250000e-12,-2.000000e-05,0.000000e+00,1.576929e-06
8.500000e-12,-2.000000e-05,0.000000e+00,1.569680e-06
8.750000e-12,-2.000000e-05,0.000000e+00,1.550287e-06
9.000000e-12,-2.000000e-05,0.000000e+00,1.525481e-06
9.250000e-12,-2.000000e-05,0.000000e+00,1.503069e-06
9.500000e-12,-2.000000e-05,0.000000e+00,1.489526e-06
9.750000e-12,-2.000000e-05,0.000000e+00,1.488173e-06
1.000000e-11,-2.000000e-05,0.000000e+00,1.498443e-06
1.025000e-11,-2.000000e-05,3.750000e-05,1.516357e-06
1.050000e-11,-2.000000e-05,7.500000e-05,1.536534e-06
1.075000e-11,-2.000000e-05,1.125000e-04,1.554608e-06
1.100000e-11,-2.000000e-05,1.500000e-04,1.568261e-06
1.125000e-11,-2.000000e-05,1.875000e-04,1.576891e-06
1.150000e-11,-2.000000e-05,2.250000e-04,1.581330e-06
1.175000e-11,-2.000000e-05,2.625000e-04,1.583996e-06
1.200000e-11,-2.000000e-05,3.000000e-04,1.588895e-06
1.225000e-11,-2.000000e-05,3.375000e-04,1.600851e-06
1.250000e-11,-2.000000e-05,3.750000e-04,1.623921e-06
1.275000e-11,-2.000000e-05,4.125000e-04,1.659745e-06
1.300000e-11,-2.000000e-05,4.500000e-04,1.706897e-06
1.325000e-11,-2.000000e-05,4.875000e-04,1.761748e-06
1.350000e-11,-2.000000e-05,5.250000e-04,1.820388e-06
1.375000e-11,-2.000000e-05,5.625000e-04,1.880514e-06
1.400000e-11,-2.000000e-05,6.000000e-04,1.942304e-06
1.425000e-11,-2.000000e-05,6.375000e-04,2.008054e-06
1.450000e-11,-2.000000e-05,6.750000e-04,2.081142e-06
1.475000e-11,-2.000000e-05,7.125000e-04,2.165141e-06
1.500000e-11,-2.000000e-05,7.500000e-04,2.263605e-06
1.525000e-11,-2.000000e-05,7.875000e-04,2.380443e-06
1.550000e-11,-2.000000e-05,8.250000e-04,2.520458e-06
1.575000e-11,-2.000000e-05,8.625000e-04,2.689644e-06
1.600000e-11,-2.000000e-05,9.000000e-04,2.895200e-06
1.625000e-11,-2.000000e-05,9.375000e-04,3.145559e-06
1.650000e-11,-2.000000e-05,9.750000e-04,3.450898e-06
1.675000e-11,-2.000000e-05,1.012500e-03,3.824431e-06
1.700000e-11,-2.000000e-05,1.050000e-03,4.284509e-06
1.725000e-11,-2.000000e-05,1.087500e-03,4.857289e-06
1.750000e-11,-2.000000e-05,1.125000e-03,5.579688e-06
1.775000e-11,-2.000000e-05,1.162500e-03,6.502333e-06
1.800000e-11,-2.000000e-05,1.200000e-03,7.691809e-06
1.825000e-11,-2.000000e-05,1.237500e-03,9.229687e-06
1.850000e-11,-2.000000e-05,1.275000e-03,1.120099e-05
1.875000e-11,-2.000000e-05,1.312500e-03,1.365688e-05
1.900000e-11,-2.000000e-05,1.350000e-03,1.653679e-05
1.925000e-11,-2.000000e-05,1.387500e-03,1.957685e-05
1.950000e-11,-2.000000e-05,1.425000e-03,2.230687e-05
1.975000e-11,-2.000000e-05,1.462500e-03,2.420118e-05
2.000000e-11,-2.000000e-05,1.500000e-03,2.489290e-05
2.025000e-11,-2.000000e-05,1.500000e-03,2.432066e-05
2.050000e-11,-2.000000e-05,1.500000e-03,2.272699e-05
2.075000e-11,-2.000000e-05,1.500000e-03,2.055759e-05
2.100000e-11,-2.000000e-05,1.500000e-03,1.831087e-05
2.125000e-11,-2.000000e-05,1.500000e-03,1.641762e-05
2.150000e-11,-2.000000e-05,1.500000e-03,1.518285e-05
2.175000e-11,-2.000000e-05,1.500000e-03,1.477760e-05
2.200000e-11,-2.000000e-05,1.500000e-03,1.524759e-05
2.225000e-11,-2.000000e-05,1.500000e-03,1.651135e-05
2.250000e-11,-2.000000e-05,1.500000e-03,1.834515e-05
2.275000e-11,-2.000000e-05,1.500000e-03,2.038513e-05
2.300000e-11,-2.000000e-05,1.500000e-03,2.218773e-05
2.325000e-11,-2.000000e-05,1.500000e-03,2.334877e-05
2.350000e-11,-2.000000e-05,1.500000e-03,2.362744e-05
2.375000e-11,-2.000000e-05,1.500000e-03,2.301414e-05
2.400000e-11,-2.000000e-05,1.500000e-03,2.171546e-05
2.425000e-11,-2.000000e-05,1.500000e-03,2.007191e-05
2.450000e-11,-2.000000e-05,1.500000e-03,1.845257e-05
2.475000e-11,-2.000000e-05,1.500000e-03,1.717107e-05
2.500000e-11,-2.000000e-05,1.500000e-03,1.644206e-05
2.525000e-11,-2.000000e-05,1.500000e-03,1.636986e-05
2.550000e-11,-2.000000e-05,1.500000e-03,1.694920e-05
2.575000e-11,-2.000000e-05,1.500000e-03,1.806435e-05
2.600000e-11,-2.000000e-05,1.500000e-03,1.949199e-05
2.625000e-11,-2.000000e-05,1.500000e-03,2.092880e-05
2.650000e-11,-2.000000e-05,1.500000e-03,2.205707e-05
2.675000e-11,-2.000000e-05,1.500000e-03,2.263127e-05
2.700000e-11,-2.000000e-05,1.500000e-03,2.254754e-05
2.725000e-11,-2.000000e-05,1.500000e-03,2.186618e-05
2.750000e-11,-2.000000e-05,1.500000e-03,2.078136e-05
2.775000e-11,-2.000000e-05,1.500000e-03,1.955631e-05
2.800000e-11,-2.000000e-05,1.500000e-03,1.845333e-05
2.825000e-11,-2.000000e-05,1.500000e-03,1.768181e-05
2.850000e-11,-2.000000e-05,1.500000e-03,1.737102e-05
2.875000e-11,-2.000000e-05,1.500000e-03,1.756091e-05
2.900000e-11,-2.000000e-05,1.500000e-03,1.820117e-05
2.925000e-11,-2.000000e-05,1.500000e-03,1.915606e-05
2.950000e-11,-2.000000e-05,1.500000e-03,2.022196e-05
2.975000e-11,-2.000000e-05,1.500000e-03,2.116609e-05
3.000000e-11,-2.000000e-05,1.500000e-03,2.178261e-05
3.025000e-11,-2.000000e-05,1.500000e-03,2.194686e-05
3.050000e-11,-2.000000e-05,1.500000e-03,2.164635e-05
3.075000e-11,-2.000000e-05,1.500000e-03,2.097693e-05
3.100000e-11,-2.000000e-05,1.500000e-03,2.010901e-05
3.125000e-11,-2.000000e-05,1.500000e-03,1.923933e-05
3.150000e-11,-2.000000e-05,1.500000e-03,1.854600e-05
3.175000e-11,-2.000000e-05,1.500000e-03,1.815724e-05
3.200000e-11,-2.000000e-05,1.500000e-03,1.813511e-05
3.225000e-11,-2.000000e-05,1.500000e-03,1.847038e-05
3.250000e-11,-2.000000e-05,1.500000e-03,1.908522e-05
3.275000e-11,-2.000000e-05,1.500000e-03,1.984542e-05
3.300000e-11,-2.000000e-05,1.500000e-03,2.058515e-05
3.325000e-11,-2.000000e-05,1.500000e-03,2.114364e-05
3.350000e-11,-2.000000e-05,1.500000e-03,2.140451e-05
3.375000e-11,-2.000000e-05,1.500000e-03,2.132424e-05
3.400000e-11,-2.000000e-05,1.500000e-03,2.093967e-05
3.425000e-11,-2.000000e-05,1.500000e-03,2.035319e-05
3.450000e-11,-2.000000e-05,1.500000e-03,1.970282e-05
3.475000e-11,-2.000000e-05,1.500000e-03,1.912838e-05
3.500000e-11,-2.000000e-05,1.500000e-03,1.874317e-05
3.525000e-11,-2.000000e-05,1.500000e-03,1.861553e-05
3.550000e-11,-2.000000e-05,1.500000e-03,1.876018e-05
3.575000e-11,-2.000000e-05,1.500000e-03,1.913788e-05
3.600000e-11,-2.000000e-05,1.500000e-03,1.966297e-05
3.625000e-11,-2.000000e-05,1.500000e-03,2.021985e-05
3.650000e-11,-2.000000e-05,1.500000e-03,2.068742e-05
3.675000e-11,-2.000000e-05,1.500000e-03,2.096706e-05
3.700000e-11,-2.000000e-05,1.500000e-03,2.100586e-05
3.725000e-11,-2.000000e-05,1.500000e-03,2.080772e-05
3.750000e-11,-2.000000e-05,1.500000e-03,2.042903e-05
3.775000e-11,-2.000000e-05,1.500000e-03,1.996168e-05
3.800000e-11,-2.000000e-05,1.500000e-03,1.950961e-05
3.825000e-11,-2.000000e-05,1.500000e-03,1.916607e-05
3.850000e-11,-2.000000e-05,1.500000e-03,1.899616e-05
3.875000e-11,-2.000000e-05,1.500000e-03,1.902671e-05
3.900000e-11,-2.000000e-05,1.500000e-03,1.924328e-05
3.925000e-11,-2.000000e-05,1.500000e-03,1.959403e-05
3.950000e-11,-2.000000e-05,1.500000e-03,2.000033e-05
3.975000e-11,-2.000000e-05,1.500000e-03,2.037332e-05
4.000000e-11,-2.000000e-05,1.500000e-03,2.063368e-05
4.025000e-11,-2.000000e-05,1.500000e-03,2.072969e-05
4.050000e-11,-2.000000e-05,1.500000e-03,2.064840e-05
4.075000e-11,-2.000000e-05,1.500000e-03,2.041676e-05
4.100000e-11,-2.000000e-05,1.500000e-03,2.009282e-05
4.125000e-11,-2.000000e-05,1.500000e-03,1.975061e-05
4.150000e-11,-2.000000e-05,1.500000e-03,1.946305e-05
4.175000e-11,-2.000000e-05,1.500000e-03,1.928722e-05
4.200000e-11,-2.000000e-05,1.500000e-03,1.925422e-05
4.225000e-11,-2.000000e-05,1.500000e-03,1.936466e-05
4.250000e-11,-2.000000e-05,1.500000e-03,1.958970e-05
4.275000e-11,-2.000000e-05,1.500000e-03,1.987757e-05
4.300000e-11,-2.000000e-05,1.500000e-03,2.016463e-05
4.325000e-11,-2.000000e-05,1.500000e-03,2.038929e-05
4.350000e-11,-2.000000e-05,1.500000e-03,2.050573e-05
4.375000e-11,-2.000000e-05,1.500000e-03,2.049381e-05
4.400000e-11,-2.000000e-05,1.500000e-03,2.036250e-05
4.425000e-11,-2.000000e-05,1.500000e-03,2.014626e-05
4.450000e-11,-2.000000e-05,1.500000e-03,1.989573e-05
4.475000e-11,-2.000000e-05,1.500000e-03,1.966571e-05
4.500000e-11,-2.000000e-05,1.500000e-03,1.950343e-05
4.525000e-11,-2.000000e-05,1.500000e-03,1.943951e-05
4.550000e-11,-2.000000e-05,1.500000e-03,1.948281e-05
4.575000e-11,-2.000000e-05,1.500000e-03,1.961967e-05
4.600000e-11,-2.000000e-05,1.500000e-03,1.981744e-05
4.625000e-11,-2.000000e-05,1.500000e-03,2.003170e-05
4.650000e-11,-2.000000e-05,1.500000e-03,2.021601e-05
4.675000e-11,-2.000000e-05,1.500000e-03,2.033208e-05
4.700000e-11,-2.000000e-05,1.500000e-03,2.035804e-05
4.725000e-11,-2.000000e-05,1.500000e-03,2.029264e-05
4.750000e-11,-2.000000e-05,1.500000e-03,2.015450e-05
4.775000e-11,-2.000000e-05,1.500000e-03,1.997685e-05
4.800000e-11,-2.000000e-05,1.500000e-03,1.979943e-05
4.825000e-11,-2.000000e-05,1.500000e-03,1.965967e-05
4.850000e-11,-2.000000e-05,1.500000e-03,1.958509e-05
4.875000e-11,-2.000000e-05,1.500000e-03,1.958830e-05
4.900000e-11,-2.000000e-05,1.500000e-03,1.966517e-05
4.925000e-11,-2.000000e-05,1.500000e-03,1.979632e-05
4.950000e-11,-2.000000e-05,1.500000e-03,1.995169e-05
4.975000e-11,-2.000000e-05,1.500000e-03,2.009718e-05
5.000000e-11,-2.000000e-05,1.500000e-03,2.020209e-05
5.025000e-11,-2.000000e-05,1.500000e-03,2.024576e-05
5.050000e-11,-2.000000e-05,1.500000e-03,2.022171e-05
5.075000e-11,-2.000000e-05,1.500000e-03,2.013839e-05
5.100000e-11,-2.000000e-05,1.500000e-03,2.001655e-05
5.125000e-11,-2.000000e-05,1.500000e-03,1.988402e-05
5.150000e-11,-2.000000e-05,1.500000e-03,1.976941e-05
5.175000e-11,-2.000000e-05,1.500000e-03,1.969602e-05
5.200000e-11,-2.000000e-05,1.500000e-03,1.967735e-05
5.225000e-11,-2.000000e-05,1.500000e-03,1.971485e-05
5.250000e-11,-2.000000e-05,1.500000e-03,1.979811e-05
5.275000e-11,-2.000000e-05,1.500000e-03,1.990751e-05
5.300000e-11,-2.000000e-05,1.500000e-03,2.001868e-05
5.325000e-11,-2.000000e-05,1.500000e-03,2.010782e-05
5.350000e-11,-2.000000e-05,1.500000e-03,2.015687e-05
5.375000e-11,-2.000000e-05,1.500000e-03,2.015719e-05
5.400000e-11,-2.000000e-05,1.500000e-03,2.011105e-05
5.425000e-11,-2.000000e-05,1.500000e-03,2.003056e-05
5.450000e-11,-2.000000e-05,1.500000e-03,1.993453e-05
5.475000e-11,-2.000000e-05,1.500000e-03,1.984411e-05
5.500000e-11,-2.000000e-05,1.500000e-03,1.977815e-05
5.525000e-11,-2.000000e-05,1.500000e-03,1.974943e-05
5.550000e-11,-2.000000e-05,1.500000e-03,1.976227e-05
5.575000e-11,-2.000000e-05,1.500000e-03,1.981210e-05
5.600000e-11,-2.000000e-05,1.500000e-03,1.988670e-05
5.625000e-11,-2.000000e-05,1.500000e-03,1.996915e-05
5.650000e-11,-2.000000e-05,1.500000e-03,2.004155e-05
5.675000e-11,-2.000000e-05,1.500000e-03,2.008891e-05
5.700000e-11,-2.000000e-05,1.500000e-03,2.010227e-05
5.725000e-11,-2.000000e-05,1.500000e-03,2.008038e-05
5.750000e-11,-2.000000e-05,1.500000e-03,2.002959e-05
5.775000e-11,-2.000000e-05,1.500000e-03,1.996212e-05
5.800000e-11,-2.000000e-05,1.500000e-03,1.989311e-05
5.825000e-11,-2.000000e-05,1.500000e-03,1.983726e-05
5.850000e-11,-2.000000e-05,1.500000e-03,1.980577e-05
5.875000e-11,-2.000000e-05,1.500000e-03,1.980416e-05
5.900000e-11,-2.000000e-05,1.500000e-03,1.983139e-05
5.925000e-11,-2.000000e-05,1.500000e-03,1.988040e-05
5.950000e-11,-2.000000e-05,1.500000e-03,1.993980e-05
5.975000e-11,-2.000000e-05,1.500000e-03,1.999651e-05
6.000000e-11,-2.000000e-05,1.500000e-03,2.003857e-05
6.025000e-11,-2.000000e-05,1.500000e-03,2.005768e-05
6.050000e-11,-2.000000e-05,1.500000e-03,2.005083e-05
6.075000e-11,-2.000000e-05,1.500000e-03,2.002073e-05
6.100000e-11,-2.000000e-05,1.500000e-03,1.997488e-05
6.125000e-11,-2.000000e-05,1.500000e-03,1.992379e-05
6.150000e-11,-2.000000e-05,1.500000e-03,1.987855e-05
6.175000e-11,-2.000000e-05,1.500000e-03,1.984848e-05
6.200000e-11,-2.000000e-05,1.500000e-03,1.983922e-05
6.225000e-11,-2.000000e-05,1.500000e-03,1.985178e-05
6.250000e-11,-2.000000e-05,1.500000e-03,1.988250e-05
6.275000e-11,-2.000000e-05,1.500000e-03,1.992403e-05
6.300000e-11,-2.000000e-05,1.500000e-03,1.996707e-05
6.325000e-11,-2.000000e-05,1.500000e-03,2.000238e-05
6.350000e-11,-2.000000e-05,1.500000e-03,2.002280e-05
6.375000e-11,-2.000000e-05,1.500000e-03,2.002468e-05
6.400000e-11,-2.000000e-05,1.500000e-03,2.000848e-05
6.425000e-11,-2.000000e-05,1.500000e-03,1.997851e-05
6.450000e-11,-2.000000e-05,1.500000e-03,1.994179e-05
6.475000e-11,-2.000000e-05,1.500000e-03,1.990646e-05
6.500000e-11,-2.000000e-05,1.500000e-03,1.987992e-05
6.525000e-11,-2.000000e-05,1.500000e-03,1.986741e-05
6.550000e-11,-2.000000e-05,1.500000e-03,1.987091e-05
6.575000e-11,-2.000000e-05,1.500000e-03,1.988895e-05
6.600000e-11,-2.000000e-05,1.500000e-03,1.991703e-05
6.625000e-11,-2.000000e-05,1.500000e-03,1.994874e-05
6.650000e-11,-2.000000e-05,1.500000e-03,1.997716e-05
6.675000e-11,-2.000000e-05,1.500000e-03,1.999640e-05
6.700000e-11,-2.000000e-05,1.500000e-03,2.000278e-05
6.725000e-11,-2.000000e-05,1.500000e-03,1.999556e-05
6.750000e-11,-2.000000e-05,1.500000e-03,1.997691e-05
6.775000e-11,-2.000000e-05,1.500000e-03,1.995133e-05
6.800000e-11,-2.000000e-05,1.500000e-03,1.992458e-05
6.825000e-11,-2.000000e-05,1.500000e-03,1.990241e-05
6.850000e-11,-2.000000e-05,1.500000e-03,1.988929e-05
6.875000e-11,-2.000000e-05,1.500000e-03,1.988760e-05
6.900000e-11,-2.000000e-05,1.500000e-03,1.989715e-05
6.925000e-11,-2.000000e-05,1.500000e-03,1.991540e-05
6.950000e-11,-2.000000e-05,1.500000e-03,1.993809e-05
6.975000e-11,-2.000000e-05,1.500000e-03,1.996017e-05
7.000000e-11,-2.000000e-05,1.500000e-03,1.997700e-05
7.025000e-11,-2.000000e-05,1.500000e-03,1.998522e-05
7.050000e-11,-2.000000e-05,1.500000e-03,1.998349e-05
7.075000e-11,-2.000000e-05,1.500000e-03,1.997265e-05
7.100000e-11,-2.000000e-05,1.500000e-03,1.995542e-05
7.125000e-11,-2.000000e-05,1.500000e-03,1.993578e-05
7.150000e-11,-2.000000e-05,1.500000e-03,1.991800e-05
7.175000e-11,-2.000000e-05,1.500000e-03,1.990578e-05
7.200000e-11,-2.000000e-05,1.500000e-03,1.990144e-05
7.225000e-11,-2.000000e-05,1.500000e-03,1.990554e-05
7.250000e-11,-2.000000e-05,1.500000e-03,1.991682e-05
7.275000e-11,-2.000000e-05,1.500000e-03,1.993255e-05
7.300000e-11,-2.000000e-05,1.500000e-03,1.994919e-05
7.325000e-11,-2.000000e-05,1.500000e-03,1.996316e-05
7.350000e-11,-2.000000e-05,1.500000e-03,1.997161e-05
7.375000e-11,-2.000000e-05,1.500000e-03,1.997300e-05
7.400000e-11,-2.000000e-05,1.500000e-03,1.996736e-05
7.425000e-11,-2.000000e-05,1.500000e-03,1.995622e-05
7.450000e-11,-2.000000e-05,1.500000e-03,1.994222e-05
7.475000e-11,-2.000000e-05,1.500000e-03,1.992845e-05
7.500000e-11,-2.000000e-05,1.500000e-03,1.991783e-05
7.525000e-11,-2.000000e-05,1.500000e-03,1.991247e-05
7.550000e-11,-2.000000e-05,1.500000e-03,1.991326e-05
7.575000e-11,-2.000000e-05,1.500000e-03,1.991974e-05
7.600000e-11,-2.000000e-05,1.500000e-03,1.993029e-05
7.625000e-11,-2.000000e-05,1.500000e-03,1.994246e-05
7.650000e-11,-2.000000e-05,1.500000e-03,1.995360e-05
7.675000e-11,-2.000000e-05,1.500000e-03,1.996139e-05
7.700000e-11,-2.000000e-05,1.500000e-03,1.996432e-05
7.725000e-11,-2.000000e-05,1.500000e-03,1.996201e-05
7.750000e-11,-2.000000e-05,1.500000e-03,1.995518e-05
7.775000e-11,-2.000000e-05,1.500000e-03,1.994550e-05
7.800000e-11,-2.000000e-05,1.500000e-03,1.993516e-05
7.825000e-11,-2.000000e-05,1.500000e-03,1.992639e-05
7.850000e-11,-2.000000e-05,1.500000e-03,1.992097e-05
7.875000e-11,-2.000000e-05,1.500000e-03,1.991991e-05
7.900000e-11,-2.000000e-05,1.500000e-03,1.992321e-05
7.925000e-11,-2.000000e-05,1.500000e-03,1.992999e-05
7.950000e-11,-2.000000e-05,1.500000e-03,1.993864e-05
7.975000e-11,-2.000000e-05,1.500000e-03,1.994723e-05
8.000000e-11,-2.000000e-05,1.500000e-03,1.995394e-05
8.025000e-11,-2.000000e-05,1.500000e-03,1.995743e-05
8.050000e-11,-2.000000e-05,1.500000e-03,1.995712e-05
8.075000e-11,-2.000000e-05,1.500000e-03,1.995324e-05
8.100000e-11,-2.000000e-05,1.500000e-03,1.994678e-05
8.125000e-11,-2.000000e-05,1.500000e-03,1.993924e-05
8.150000e-11,-2.000000e-05,1.500000e-03,1.993227e-05
8.175000e-11,-2.000000e-05,1.500000e-03,1.992733e-05
8.200000e-11,-2.000000e-05,1.500000e-03,1.992536e-05
8.225000e-11,-2.000000e-05,1.500000e-03,1.992666e-05
8.250000e-11,-2.000000e-05,1.500000e-03,1.993078e-05
8.275000e-11,-2.000000e-05,1.500000e-03,1.993673e-05
8.300000e-11,-2.000000e-05,1.500000e-03,1.994315e-05
8.325000e-11,-2.000000e-05,1.500000e-03,1.994867e-05
8.350000e-11,-2.000000e-05,1.500000e-03,1.995214e-05
8.375000e-11,-2.000000e-05,1.500000e-03,1.995293e-05
8.400000e-11,-2.000000e-05,1.500000e-03,1.995099e-05
8.425000e-11,-2.000000e-05,1.500000e-03,1.994687e-05
8.450000e-11,-2.000000e-05,1.500000e-03,1.994153e-05
8.475000e-11,-2.000000e-05,1.500000e-03,1.993618e-05
8.500000e-11,-2.000000e-05,1.500000e-03,1.993195e-05
8.525000e-11,-2.000000e-05,1.500000e-03,1.992968e-05
8.550000e-11,-2.000000e-05,1.500000e-03,1.992977e-05
8.575000e-11,-2.000000e-05,1.500000e-03,1.993208e-05
8.600000e-11,-2.000000e-05,1.500000e-03,1.993603e-05
8.625000e-11,-2.000000e-05,1.500000e-03,1.994070e-05
8.650000e-11,-2.000000e-05,1.500000e-03,1.994505e-05
8.675000e-11,-2.000000e-05,1.500000e-03,1.994819e-05
8.700000e-11,-2.000000e-05,1.500000e-03,1.994951e-05
8.725000e-11,-2.000000e-05,1.500000e-03,1.994879e-05
8.750000e-11,-2.000000e-05,1.500000e-03,1.994630e-05
8.775000e-11,-2.000000e-05,1.500000e-03,1.994265e-05
8.800000e-11,-2.000000e-05,1.500000e-03,1.993866e-05
8.825000e-11,-2.000000e-05,1.500000e-03,1.993520e-05
8.850000e-11,-2.000000e-05,1.500000e-03,1.993298e-05
8.875000e-11,-2.000000e-05,1.500000e-03,1.993241e-05
8.900000e-11,-2.000000e-05,1.500000e-03,1.993354e-05
8.925000e-11,-2.000000e-05,1.500000e-03,1.993605e-05
8.950000e-11,-2.000000e-05,1.500000e-03,1.993933e-05
8.975000e-11,-2.000000e-05,1.500000e-03,1.994267e-05
9.000000e-11,-2.000000e-05,1.500000e-03,1.994534e-05
9.025000e-11,-2.000000e-05,1.500000e-03,1.994681e-05
9.050000e-11,-2.000000e-05,1.500000e-03,1.994682e-05
9.075000e-11,-2.000000e-05,1.500000e-03,1.994544e-05
9.100000e-11,-2.000000e-05,1.500000e-03,1.994303e-05
9.125000e-11,-2.000000e-05,1.500000e-03,1.994014e-05
9.150000e-11,-2.000000e-05,1.500000e-03,1.993742e-05
9.175000e-11,-2.000000e-05,1.500000e-03,1.993543e-05
9.200000e-11,-2.000000e-05,1.500000e-03,1.993456e-05
9.225000e-11,-2.000000e-05,1.500000e-03,1.993495e-05
9.250000e-11,-2.000000e-05,1.500000e-03,1.993644e-05
9.275000e-11,-2.000000e-05,1.500000e-03,1.993869e-05
9.300000e-11,-2.000000e-05,1.500000e-03,1.994116e-05
9.325000e-11,-2.000000e-05,1.500000e-03,1.994334e-05
9.350000e-11,-2.000000e-05,1.500000e-03,1.994476e-05
9.375000e-11,-2.000000e-05,1.500000e-03,1.994516e-05
