time,"I(IIN)","I(IXIN)","I(LOUT)","P(B1|X1)","P(B2|X1)"
0.000000e+00,0.000000e+00,0.000000e+00,0.000000e+00,0.000000e+00,0.000000e+00
1.000000e-14,4.000000e-08,0.000000e+00,7.794555e-10,-6.885472e-08,6.885472e-08
2.000000e-14,8.000000e-08,0.000000e+00,1.560556e-09,-3.199464e-07,3.199464e-07
3.000000e-14,1.200000e-07,0.000000e+00,2.344510e-09,-8.872134e-07,8.872134e-07
4.000000e-14,1.600000e-07,0.000000e+00,3.132591e-09,-1.911827e-06,1.911827e-06
5.000000e-14,2.000000e-07,0.000000e+00,3.926083e-09,-3.535952e-06,3.535952e-06
6.000000e-14,2.400000e-07,0.000000e+00,4.726254e-09,-5.900061e-06,5.900061e-06
7.000000e-14,2.800000e-07,0.000000e+00,5.534346e-09,-9.141826e-06,9.141826e-06
8.000000e-14,3.200000e-07,0.000000e+00,6.351573e-09,-1.339568e-05,1.339568e-05
9.000000e-14,3.600000e-07,0.000000e+00,7.179116e-09,-1.879264e-05,1.879264e-05
1.000000e-13,4.000000e-07,0.000000e+00,8.018127e-09,-2.546024e-05,2.546024e-05
1.100000e-13,4.400000e-07,0.000000e+00,8.869726e-09,-3.352251e-05,3.352251e-05
1.200000e-13,4.800000e-07,0.000000e+00,9.734999e-09,-4.309994e-05,4.309994e-05
1.300000e-13,5.200000e-07,0.000000e+00,1.061500e-08,-5.430952e-05,5.430952e-05
1.400000e-13,5.600000e-07,0.000000e+00,1.151076e-08,-6.726472e-05,6.726472e-05
1.500000e-13,6.000000e-07,0.000000e+00,1.242327e-08,-8.207547e-05,8.207547e-05
1.600000e-13,6.400000e-07,0.000000e+00,1.335348e-08,-9.884823e-05,9.884823e-05
1.700000e-13,6.800000e-07,0.000000e+00,1.430233e-08,-1.176859e-04,1.176859e-04
1.800000e-13,7.200000e-07,0.000000e+00,1.527072e-08,-1.386880e-04,1.386880e-04
1.900000e-13,7.600000e-07,0.000000e+00,1.625950e-08,-1.619505e-04,1.619505e-04
2.000000e-13,8.000000e-07,0.000000e+00,1.726952e-08,-1.875659e-04,1.875659e-04
2.100000e-13,8.400000e-07,0.000000e+00,1.830158e-08,-2.156233e-04,2.156233e-04
2.200000e-13,8.800000e-07,0.000000e+00,1.935646e-08,-2.462083e-04,2.462083e-04
2.300000e-13,9.200000e-07,0.000000e+00,2.043489e-08,-2.794033e-04,2.794033e-04
2.400000e-13,9.600000e-07,0.000000e+00,2.153758e-08,-3.152870e-04,3.152870e-04
2.500000e-13,1.000000e-06,0.000000e+00,2.266523e-08,-3.539351e-04,3.539351e-04
2.600000e-13,1.040000e-06,0.000000e+00,2.381847e-08,-3.954198e-04,3.954198e-04
2.700000e-13,1.080000e-06,0.000000e+00,2.499794e-08,-4.398098e-04,4.398098e-04
2.800000e-13,1.120000e-06,0.000000e+00,2.620423e-08,-4.871710e-04,4.871710e-04
2.900000e-13,1.160000e-06,0.000000e+00,2.743789e-08,-5.375655e-04,5.375655e-04
3.000000e-13,1.200000e-06,0.000000e+00,2.869946e-08,-5.910527e-04,5.910527e-04
3.100000e-13,1.240000e-06,0.000000e+00,2.998945e-08,-6.476884e-04,6.476884e-04
3.200000e-13,1.280000e-06,0.000000e+00,3.130833e-08,-7.075255e-04,7.075255e-04
3.300000e-13,1.320000e-06,0.000000e+00,3.265656e-08,-7.706138e-04,7.706138e-04
3.400000e-13,1.360000e-06,0.000000e+00,3.403455e-08,-8.369998e-04,8.369998e-04
3.500000e-13,1.400000e-06,0.000000e+00,3.544269e-08,-9.067273e-04,9.067273e-04
3.600000e-13,1.440000e-06,0.000000e+00,3.688136e-08,-9.798367e-04,9.798367e-04
3.700000e-13,1.480000e-06,0.000000e+00,3.835090e-08,-1.056366e-03,1.056366e-03
3.800000e-13,1.520000e-06,0.000000e+00,3.985161e-08,-1.136349e-03,1.136349e-03
3.900000e-13,1.560000e-06,0.000000e+00,4.138378e-08,-1.219819e-03,1.219819e-03
4.000000e-13,1.600000e-06,0.000000e+00,4.294768e-08,-1.306804e-03,1.306804e-03
4.100000e-13,1.640000e-06,0.000000e+00,4.454354e-08,-1.397330e-03,1.397330e-03
4.200000e-13,1.680000e-06,0.000000e+00,4.617158e-08,-1.491422e-03,1.491422e-03
4.300000e-13,1.720000e-06,0.000000e+00,4.783198e-08,-1.589098e-03,1.589098e-03
4.400000e-13,1.760000e-06,0.000000e+00,4.952490e-08,-1.690379e-03,1.690379e-03
4.500000e-13,1.800000e-06,0.000000e+00,5.125049e-08,-1.795279e-03,1.795279e-03
4.600000e-13,1.840000e-06,0.000000e+00,5.300886e-08,-1.903811e-03,1.903811e-03
4.700000e-13,1.880000e-06,0.000000e+00,5.480011e-08,-2.015986e-03,2.015986e-03
4.800000e-13,1.920000e-06,0.000000e+00,5.662430e-08,-2.131811e-03,2.131811e-03
4.900000e-13,1.960000e-06,0.000000e+00,5.848149e-08,-2.251292e-03,2.251292e-03
5.000000e-13,2.000000e-06,0.000000e+00,6.037170e-08,-2.374432e-03,2.374432e-03
5.100000e-13,2.040000e-06,0.000000e+00,6.229494e-08,-2.501232e-03,2.501232e-03
5.200000e-13,2.080000e-06,0.000000e+00,6.425120e-08,-2.631690e-03,2.631690e-03
5.300000e-13,2.120000e-06,0.000000e+00,6.624045e-08,-2.765803e-03,2.765803e-03
5.400000e-13,2.160000e-06,0.000000e+00,6.826262e-08,-2.903564e-03,2.903564e-03
5.500000e-13,2.200000e-06,0.000000e+00,7.031766e-08,-3.044967e-03,3.044967e-03
5.600000e-13,2.240000e-06,0.000000e+00,7.240546e-08,-3.190000e-03,3.190000e-03
5.700000e-13,2.280000e-06,0.000000e+00,7.452592e-08,-3.338651e-03,3.338651e-03
5.800000e-13,2.320000e-06,0.000000e+00,7.667891e-08,-3.490907e-03,3.490907e-03
5.900000e-13,2.360000e-06,0.000000e+00,7.886429e-08,-3.646752e-03,3.646752e-03
6.000000e-13,2.400000e-06,0.000000e+00,8.108190e-08,-3.806166e-03,3.806166e-03
6.100000e-13,2.440000e-06,0.000000e+00,8.333155e-08,-3.969132e-03,3.969132e-03
6.200000e-13,2.480000e-06,0.000000e+00,8.561305e-08,-4.135627e-03,4.135627e-03
6.300000e-13,2.520000e-06,0.000000e+00,8.792619e-08,-4.305628e-03,4.305628e-03
6.400000e-13,2.560000e-06,0.000000e+00,9.027076e-08,-4.479110e-03,4.479110e-03
6.500000e-13,2.600000e-06,0.000000e+00,9.264650e-08,-4.656047e-03,4.656047e-03
6.600000e-13,2.640000e-06,0.000000e+00,9.505317e-08,-4.836410e-03,4.836410e-03
6.700000e-13,2.680000e-06,0.000000e+00,9.749050e-08,-5.020170e-03,5.020170e-03
6.800000e-13,2.720000e-06,0.000000e+00,9.995821e-08,-5.207297e-03,5.207297e-03
6.900000e-13,2.760000e-06,0.000000e+00,1.024560e-07,-5.397757e-03,5.397757e-03
7.000000e-13,2.800000e-06,0.000000e+00,1.049836e-07,-5.591517e-03,5.591517e-03
7.100000e-13,2.840000e-06,0.000000e+00,1.075406e-07,-5.788541e-03,5.788541e-03
7.200000e-13,2.880000e-06,0.000000e+00,1.101268e-07,-5.988794e-03,5.988794e-03
7.300000e-13,2.920000e-06,0.000000e+00,1.127418e-07,-6.192238e-03,6.192238e-03
7.400000e-13,2.960000e-06,0.000000e+00,1.153852e-07,-6.398833e-03,6.398833e-03
7.500000e-13,3.000000e-06,0.000000e+00,1.180567e-07,-6.608540e-03,6.608540e-03
7.600000e-13,3.040000e-06,0.000000e+00,1.207559e-07,-6.821319e-03,6.821319e-03
7.700000e-13,3.080000e-06,0.000000e+00,1.234825e-07,-7.037126e-03,7.037126e-03
7.800000e-13,3.120000e-06,0.000000e+00,1.262360e-07,-7.255920e-03,7.255920e-03
7.900000e-13,3.160000e-06,0.000000e+00,1.290161e-07,-7.477656e-03,7.477656e-03
8.000000e-13,3.200000e-06,0.000000e+00,1.318223e-07,-7.702290e-03,7.702290e-03
8.100000e-13,3.240000e-06,0.000000e+00,1.346543e-07,-7.929776e-03,7.929776e-03
8.200000e-13,3.280000e-06,0.000000e+00,1.375116e-07,-8.160067e-03,8.160067e-03
8.300000e-13,3.320000e-06,0.000000e+00,1.403938e-07,-8.393117e-03,8.393117e-03
8.400000e-13,3.360000e-06,0.000000e+00,1.433004e-07,-8.628878e-03,8.628878e-03
8.500000e-13,3.400000e-06,0.000000e+00,1.462311e-07,-8.867302e-03,8.867302e-03
8.600000e-13,3.440000e-06,0.000000e+00,1.491854e-07,-9.108339e-03,9.108339e-03
8.700000e-13,3.480000e-06,0.000000e+00,1.521628e-07,-9.351939e-03,9.351939e-03
8.800000e-13,3.520000e-06,0.000000e+00,1.551629e-07,-9.598054e-03,9.598054e-03
8.900000e-13,3.560000e-06,0.000000e+00,1.581852e-07,-9.846631e-03,9.846631e-03
9.000000e-13,3.600000e-06,0.000000e+00,1.612293e-07,-1.009762e-02,1.009762e-02
9.100000e-13,3.640000e-06,0.000000e+00,1.642947e-07,-1.035097e-02,1.035097e-02
9.200000e-13,3.680000e-06,0.000000e+00,1.673809e-07,-1.060663e-02,1.060663e-02
9.300000e-13,3.720000e-06,0.000000e+00,1.704875e-07,-1.086455e-02,1.086455e-02
9.400000e-13,3.760000e-06,0.000000e+00,1.736140e-07,-1.112467e-02,1.112467e-02
9.500000e-13,3.800000e-06,0.000000e+00,1.767599e-07,-1.138694e-02,1.138694e-02
9.600000e-13,3.840000e-06,0.000000e+00,1.799248e-07,-1.165131e-02,1.165131e-02
9.700000e-13,3.880000e-06,0.000000e+00,1.831082e-07,-1.191773e-02,1.191773e-02
9.800000e-13,3.920000e-06,0.000000e+00,1.863095e-07,-1.218614e-02,1.218614e-02
9.900000e-13,3.960000e-06,0.000000e+00,1.895283e-07,-1.245649e-02,1.245649e-02
1.000000e-12,4.000000e-06,0.000000e+00,1.927642e-07,-1.272873e-02,1.272873e-02
1.010000e-12,4.040000e-06,0.000000e+00,1.960166e-07,-1.300280e-02,1.300280e-02
1.020000e-12,4.080000e-06,0.000000e+00,1.992851e-07,-1.327865e-02,1.327865e-02
1.030000e-12,4.120000e-06,0.000000e+00,2.025691e-07,-1.355623e-02,1.355623e-02
1.040000e-12,4.160000e-06,0.000000e+00,2.058683e-07,-1.383548e-02,1.383548e-02
1.050000e-12,4.200000e-06,0.000000e+00,2.091821e-07,-1.411635e-02,1.411635e-02
1.060000e-12,4.240000e-06,0.000000e+00,2.125100e-07,-1.439879e-02,1.439879e-02
1.070000e-12,4.280000e-06,0.000000e+00,2.158516e-07,-1.468275e-02,1.468275e-02
1.080000e-12,4.320000e-06,0.000000e+00,2.192065e-07,-1.496816e-02,1.496816e-02
1.090000e-12,4.360000e-06,0.000000e+00,2.225740e-07,-1.525499e-02,1.525499e-02
1.100000e-12,4.400000e-06,0.000000e+00,2.259538e-07,-1.554318e-02,1.554318e-02
1.110000e-12,4.440000e-06,0.000000e+00,2.293454e-07,-1.583267e-02,1.583267e-02
1.120000e-12,4.480000e-06,0.000000e+00,2.327484e-07,-1.612342e-02,1.612342e-02
1.130000e-12,4.520000e-06,0.000000e+00,2.361622e-07,-1.641538e-02,1.641538e-02
1.140000e-12,4.560000e-06,0.000000e+00,2.395864e-07,-1.670848e-02,1.670848e-02
1.150000e-12,4.600000e-06,0.000000e+00,2.430206e-07,-1.700269e-02,1.700269e-02
1.160000e-12,4.640000e-06,0.000000e+00,2.464642e-07,-1.729795e-02,1.729795e-02
1.170000e-12,4.680000e-06,0.000000e+00,2.499169e-07,-1.759422e-02,1.759422e-02
1.180000e-12,4.720000e-06,0.000000e+00,2.533783e-07,-1.789144e-02,1.789144e-02
1.190000e-12,4.760000e-06,0.000000e+00,2.568478e-07,-1.818956e-02,1.818956e-02
1.200000e-12,4.800000e-06,0.000000e+00,2.603250e-07,-1.848855e-02,1.848855e-02
1.210000e-12,4.840000e-06,0.000000e+00,2.638096e-07,-1.878834e-02,1.878834e-02
1.220000e-12,4.880000e-06,0.000000e+00,2.673010e-07,-1.908889e-02,1.908889e-02
1.230000e-12,4.920000e-06,0.000000e+00,2.707989e-07,-1.939016e-02,1.939016e-02
1.240000e-12,4.960000e-06,0.000000e+00,2.743029e-07,-1.969211e-02,1.969211e-02
1.250000e-12,5.000000e-06,0.000000e+00,2.778125e-07,-1.999467e-02,1.999467e-02
1.260000e-12,5.040000e-06,0.000000e+00,2.813273e-07,-2.029782e-02,2.029782e-02
1.270000e-12,5.080000e-06,0.000000e+00,2.848469e-07,-2.060150e-02,2.060150e-02
1.280000e-12,5.120000e-06,0.000000e+00,2.883710e-07,-2.090567e-02,2.090567e-02
1.290000e-12,5.160000e-06,0.000000e+00,2.918991e-07,-2.121029e-02,2.121029e-02
1.300000e-12,5.200000e-06,0.000000e+00,2.954310e-07,-2.151532e-02,2.151532e-02
1.310000e-12,5.240000e-06,0.000000e+00,2.989660e-07,-2.182071e-02,2.182071e-02
1.320000e-12,5.280000e-06,0.000000e+00,3.025041e-07,-2.212643e-02,2.212643e-02
1.330000e-12,5.320000e-06,0.000000e+00,3.060446e-07,-2.243242e-02,2.243242e-02
1.340000e-12,5.360000e-06,0.000000e+00,3.095874e-07,-2.273867e-02,2.273867e-02
1.350000e-12,5.400000e-06,0.000000e+00,3.131320e-07,-2.304511e-02,2.304511e-02
1.360000e-12,5.440000e-06,0.000000e+00,3.166781e-07,-2.335173e-02,2.335173e-02
1.370000e-12,5.480000e-06,0.000000e+00,3.202254e-07,-2.365847e-02,2.365847e-02
1.380000e-12,5.520000e-06,0.000000e+00,3.237735e-07,-2.396531e-02,2.396531e-02
1.390000e-12,5.560000e-06,0.000000e+00,3.273222e-07,-2.427220e-02,2.427220e-02
1.400000e-12,5.600000e-06,0.000000e+00,3.308710e-07,-2.457911e-02,2.457911e-02
1.410000e-12,5.640000e-06,0.000000e+00,3.344196e-07,-2.488601e-02,2.488601e-02
1.420000e-12,5.680000e-06,0.000000e+00,3.379679e-07,-2.519286e-02,2.519286e-02
1.430000e-12,5.720000e-06,0.000000e+00,3.415154e-07,-2.549963e-02,2.549963e-02
1.440000e-12,5.760000e-06,0.000000e+00,3.450619e-07,-2.580628e-02,2.580628e-02
1.450000e-12,5.800000e-06,0.000000e+00,3.486071e-07,-2.611279e-02,2.611279e-02
1.460000e-12,5.840000e-06,0.000000e+00,3.521507e-07,-2.641913e-02,2.641913e-02
1.470000e-12,5.880000e-06,0.000000e+00,3.556925e-07,-2.672526e-02,2.672526e-02
1.480000e-12,5.920000e-06,0.000000e+00,3.592321e-07,-2.703116e-02,2.703116e-02
1.490000e-12,5.960000e-06,0.000000e+00,3.627694e-07,-2.733679e-02,2.733679e-02
1.500000e-12,6.000000e-06,0.000000e+00,3.663041e-07,-2.764213e-02,2.764213e-02
1.510000e-12,6.040000e-06,0.000000e+00,3.698358e-07,-2.794716e-02,2.794716e-02
1.520000e-12,6.080000e-06,0.000000e+00,3.733645e-07,-2.825184e-02,2.825184e-02
1.530000e-12,6.120000e-06,0.000000e+00,3.768899e-07,-2.855615e-02,2.855615e-02
1.540000e-12,6.160000e-06,0.000000e+00,3.804117e-07,-2.886007e-02,2.886007e-02
1.550000e-12,6.200000e-06,0.000000e+00,3.839297e-07,-2.916357e-02,2.916357e-02
1.560000e-12,6.240000e-06,0.000000e+00,3.874437e-07,-2.946663e-02,2.946663e-02
1.570000e-12,6.280000e-06,0.000000e+00,3.909536e-07,-2.976923e-02,2.976923e-02
1.580000e-12,6.320000e-06,0.000000e+00,3.944591e-07,-3.007134e-02,3.007134e-02
1.590000e-12,6.360000e-06,0.000000e+00,3.979600e-07,-3.037295e-02,3.037295e-02
1.600000e-12,6.400000e-06,0.000000e+00,4.014562e-07,-3.067403e-02,3.067403e-02
1.610000e-12,6.440000e-06,0.000000e+00,4.049475e-07,-3.097457e-02,3.097457e-02
1.620000e-12,6.480000e-06,0.000000e+00,4.084337e-07,-3.127454e-02,3.127454e-02
1.630000e-12,6.520000e-06,0.000000e+00,4.119147e-07,-3.157394e-02,3.157394e-02
1.640000e-12,6.560000e-06,0.000000e+00,4.153902e-07,-3.187273e-02,3.187273e-02
1.650000e-12,6.600000e-06,0.000000e+00,4.188603e-07,-3.217092e-02,3.217092e-02
1.660000e-12,6.640000e-06,0.000000e+00,4.223246e-07,-3.246847e-02,3.246847e-02
1.670000e-12,6.680000e-06,0.000000e+00,4.257832e-07,-3.276538e-02,3.276538e-02
1.680000e-12,6.720000e-06,0.000000e+00,4.292358e-07,-3.306163e-02,3.306163e-02
1.690000e-12,6.760000e-06,0.000000e+00,4.326823e-07,-3.335721e-02,3.335721e-02
1.700000e-12,6.800000e-06,0.000000e+00,4.361227e-07,-3.365211e-02,3.365211e-02
1.710000e-12,6.840000e-06,0.000000e+00,4.395567e-07,-3.394631e-02,3.394631e-02
1.720000e-12,6.880000e-06,0.000000e+00,4.429844e-07,-3.423980e-02,3.423980e-02
1.730000e-12,6.920000e-06,0.000000e+00,4.464056e-07,-3.453257e-02,3.453257e-02
1.740000e-12,6.960000e-06,0.000000e+00,4.498203e-07,-3.482462e-02,3.482462e-02
1.750000e-12,7.000000e-06,0.000000e+00,4.532283e-07,-3.511593e-02,3.511593e-02
1.760000e-12,7.040000e-06,0.000000e+00,4.566295e-07,-3.540649e-02,3.540649e-02
1.770000e-12,7.080000e-06,0.000000e+00,4.600240e-07,-3.569630e-02,3.569630e-02
1.780000e-12,7.120000e-06,0.000000e+00,4.634115e-07,-3.598534e-02,3.598534e-02
1.790000e-12,7.160000e-06,0.000000e+00,4.667922e-07,-3.627362e-02,3.627362e-02
1.800000e-12,7.200000e-06,0.000000e+00,4.701658e-07,-3.656113e-02,3.656113e-02
1.810000e-12,7.240000e-06,0.000000e+00,4.735324e-07,-3.684785e-02,3.684785e-02
1.820000e-12,7.280000e-06,0.000000e+00,4.768920e-07,-3.713379e-02,3.713379e-02
1.830000e-12,7.320000e-06,0.000000e+00,4.802444e-07,-3.741894e-02,3.741894e-02
1.840000e-12,7.360000e-06,0.000000e+00,4.835897e-07,-3.770330e-02,3.770330e-02
1.850000e-12,7.400000e-06,0.000000e+00,4.869277e-07,-3.798687e-02,3.798687e-02
1.860000e-12,7.440000e-06,0.000000e+00,4.902586e-07,-3.826963e-02,3.826963e-02
1.870000e-12,7.480000e-06,0.000000e+00,4.935823e-07,-3.855160e-02,3.855160e-02
1.880000e-12,7.520000e-06,0.000000e+00,4.968987e-07,-3.883276e-02,3.883276e-02
1.890000e-12,7.560000e-06,0.000000e+00,5.002079e-07,-3.911312e-02,3.911312e-02
1.900000e-12,7.600000e-06,0.000000e+00,5.035098e-07,-3.939268e-02,3.939268e-02
1.910000e-12,7.640000e-06,0.000000e+00,5.068045e-07,-3.967143e-02,3.967143e-02
1.920000e-12,7.680000e-06,0.000000e+00,5.100919e-07,-3.994939e-02,3.994939e-02
1.930000e-12,7.720000e-06,0.000000e+00,5.133721e-07,-4.022654e-02,4.022654e-02
1.940000e-12,7.760000e-06,0.000000e+00,5.166451e-07,-4.050289e-02,4.050289e-02
1.950000e-12,7.800000e-06,0.000000e+00,5.199109e-07,-4.077844e-02,4.077844e-02
1.960000e-12,7.840000e-06,0.000000e+00,5.231695e-07,-4.105320e-02,4.105320e-02
1.970000e-12,7.880000e-06,0.000000e+00,5.264210e-07,-4.132716e-02,4.132716e-02
1.980000e-12,7.920000e-06,0.000000e+00,5.296653e-07,-4.160034e-02,4.160034e-02
1.990000e-12,7.960000e-06,0.000000e+00,5.329026e-07,-4.187273e-02,4.187273e-02
2.000000e-12,8.000000e-06,0.000000e+00,5.361327e-07,-4.214434e-02,4.214434e-02
2.010000e-12,8.040000e-06,0.000000e+00,5.393559e-07,-4.241517e-02,4.241517e-02
2.020000e-12,8.080000e-06,0.000000e+00,5.425721e-07,-4.268523e-02,4.268523e-02
2.030000e-12,8.120000e-06,0.000000e+00,5.457814e-07,-4.295452e-02,4.295452e-02
2.040000e-12,8.160000e-06,0.000000e+00,5.489838e-07,-4.322305e-02,4.322305e-02
2.050000e-12,8.200000e-06,0.000000e+00,5.521794e-07,-4.349083e-02,4.349083e-02
2.060000e-12,8.240000e-06,0.000000e+00,5.553683e-07,-4.375786e-02,4.375786e-02
2.070000e-12,8.280000e-06,0.000000e+00,5.585504e-07,-4.402414e-02,4.402414e-02
2.080000e-12,8.320000e-06,0.000000e+00,5.617259e-07,-4.428970e-02,4.428970e-02
2.090000e-12,8.360000e-06,0.000000e+00,5.648949e-07,-4.455452e-02,4.455452e-02
2.100000e-12,8.400000e-06,0.000000e+00,5.680573e-07,-4.481862e-02,4.481862e-02
2.110000e-12,8.440000e-06,0.000000e+00,5.712133e-07,-4.508201e-02,4.508201e-02
2.120000e-12,8.480000e-06,0.000000e+00,5.743630e-07,-4.534470e-02,4.534470e-02
2.130000e-12,8.520000e-06,0.000000e+00,5.775064e-07,-4.560669e-02,4.560669e-02
2.140000e-12,8.560000e-06,0.000000e+00,5.806435e-07,-4.586799e-02,4.586799e-02
2.150000e-12,8.600000e-06,0.000000e+00,5.837746e-07,-4.612861e-02,4.612861e-02
2.160000e-12,8.640000e-06,0.000000e+00,5.868996e-07,-4.638857e-02,4.638857e-02
2.170000e-12,8.680000e-06,0.000000e+00,5.900186e-07,-4.664786e-02,4.664786e-02
2.180000e-12,8.720000e-06,0.000000e+00,5.931318e-07,-4.690651e-02,4.690651e-02
2.190000e-12,8.760000e-06,0.000000e+00,5.962392e-07,-4.716451e-02,4.716451e-02
2.200000e-12,8.800000e-06,0.000000e+00,5.993409e-07,-4.742188e-02,4.742188e-02
2.210000e-12,8.840000e-06,0.000000e+00,6.024370e-07,-4.767864e-02,4.767864e-02
2.220000e-12,8.880000e-06,0.000000e+00,6.055276e-07,-4.793478e-02,4.793478e-02
2.230000e-12,8.920000e-06,0.000000e+00,6.086128e-07,-4.819032e-02,4.819032e-02
2.240000e-12,8.960000e-06,0.000000e+00,6.116927e-07,-4.844527e-02,4.844527e-02
2.250000e-12,9.000000e-06,0.000000e+00,6.147673e-07,-4.869965e-02,4.869965e-02
2.260000e-12,9.040000e-06,0.000000e+00,6.178368e-07,-4.895345e-02,4.895345e-02
2.270000e-12,9.080000e-06,0.000000e+00,6.209013e-07,-4.920670e-02,4.920670e-02
2.280000e-12,9.120000e-06,0.000000e+00,6.239609e-07,-4.945940e-02,4.945940e-02
2.290000e-12,9.160000e-06,0.000000e+00,6.270156e-07,-4.971157e-02,4.971157e-02
2.300000e-12,9.200000e-06,0.000000e+00,6.300656e-07,-4.996322e-02,4.996322e-02
2.310000e-12,9.240000e-06,0.000000e+00,6.331110e-07,-5.021435e-02,5.021435e-02
2.320000e-12,9.280000e-06,0.000000e+00,6.361519e-07,-5.046498e-02,5.046498e-02
2.330000e-12,9.320000e-06,0.000000e+00,6.391883e-07,-5.071513e-02,5.071513e-02
2.340000e-12,9.360000e-06,0.000000e+00,6.422205e-07,-5.096479e-02,5.096479e-02
2.350000e-12,9.400000e-06,0.000000e+00,6.452484e-07,-5.121399e-02,5.121399e-02
2.360000e-12,9.440000e-06,0.000000e+00,6.482723e-07,-5.146274e-02,5.146274e-02
2.370000e-12,9.480000e-06,0.000000e+00,6.512921e-07,-5.171104e-02,5.171104e-02
2.380000e-12,9.520000e-06,0.000000e+00,6.543081e-07,-5.195891e-02,5.195891e-02
2.390000e-12,9.560000e-06,0.000000e+00,6.573203e-07,-5.220637e-02,5.220637e-02
2.400000e-12,9.600000e-06,0.000000e+00,6.603287e-07,-5.245341e-02,5.245341e-02
2.410000e-12,9.640000e-06,0.000000e+00,6.633337e-07,-5.270006e-02,5.270006e-02
2.420000e-12,9.680000e-06,0.000000e+00,6.663351e-07,-5.294633e-02,5.294633e-02
2.430000e-12,9.720000e-06,0.000000e+00,6.693332e-07,-5.319222e-02,5.319222e-02
2.440000e-12,9.760000e-06,0.000000e+00,6.723280e-07,-5.343775e-02,5.343775e-02
2.450000e-12,9.800000e-06,0.000000e+00,6.753197e-07,-5.368293e-02,5.368293e-02
2.460000e-12,9.840000e-06,0.000000e+00,6.783084e-07,-5.392778e-02,5.392778e-02
2.470000e-12,9.880000e-06,0.000000e+00,6.812941e-07,-5.417230e-02,5.417230e-02
2.480000e-12,9.920000e-06,0.000000e+00,6.842769e-07,-5.441650e-02,5.441650e-02
2.490000e-12,9.960000e-06,0.000000e+00,6.872570e-07,-5.466040e-02,5.466040e-02
2.500000e-12,1.000000e-05,0.000000e+00,6.902345e-07,-5.490401e-02,5.490401e-02
2.510000e-12,1.004000e-05,0.000000e+00,6.932095e-07,-5.514734e-02,5.514734e-02
